#  HZ   S   DB   R     50.00 
! Rohde & Schwarz ZVA40 4Ports - Version 4.11 - 1145.1110k42 SN: 100337
! Date: 2025-12-16 12:52:45
! Measurements: S11 S41 S14 S44 
! 
 1.000000000000000E9    -6.153191733990155E1  -2.189881790916688   6.069853543927729E-2  -2.659153476409344E1  -6.236209481932469E-2  -2.621640212067320E1  -3.798315750554658E1  -1.495324615087988E2  
 1.010000000000000E9    -5.384116540448919E1  -6.910442006166448E1   1.016531581195538E-1  -2.640072905958324E1   7.925326771480466E-2  -2.673397159788431E1  -4.329658393274327E1  -4.307104503095548E1  
 1.020000000000000E9    -5.221129574716458E1   1.342877210518793E2   1.452302564164194E-3  -2.702890120580858E1  -6.389000457052321E-2  -2.703463487284537E1  -3.905919987270055E1  -1.641129427357085E2  
 1.030000000000000E9    -5.533822389349911E1   1.186198379224205E2   4.904003817866992E-2  -2.741130305452127E1  -1.370756720346687E-2  -2.714995012079571E1  -4.508437921570803E1  -5.795684098065535E1  
 1.040000000000000E9    -5.630724184575250E1   1.431502415830979E2   5.131098302368883E-2  -2.754165079348447E1   2.830104868733561E-2  -2.672026898962496E1  -3.902006832945904E1   4.738718650441000E1  
 1.050000000000000E9    -5.732542013832529E1  -1.256022775083851E2   1.356446446847895E-2  -2.752031921478222E1  -4.347791431453119E-2  -2.733893199550450E1  -3.975859557096315E1  -8.154934316789515E1  
 1.060000000000000E9    -5.689744830068599E1  -6.111959522988730E1   6.138149383807811E-2  -2.827504838978738E1  -1.822989711790319E-2  -2.759089554831594E1  -4.262986553365801E1  -9.427842024909981E1  
 1.070000000000000E9    -4.490297507034781E1  -1.769967491911309E2   7.870528388911466E-2  -2.924438406603680E1   6.422159998207967E-3  -2.855054422369656E1  -3.702086481685026E1  -6.508201566646473E1  
 1.080000000000000E9    -5.009499773636171E1   5.493764890584179E1  -1.626900910761879E-2  -2.879917495923542E1  -6.597326728176624E-2  -2.827550071934545E1  -3.938803387432183E1  -7.368332688348561E1  
 1.090000000000000E9    -5.101949608431089E1   1.392903519910088E2   1.047076891502056E-1  -2.844327204110005E1   2.173742105083832E-2  -2.863886658677360E1  -4.423376172167408E1   1.264542912480210E2  
 1.100000000000000E9    -4.712072085914024E1   4.612657118457733E1   1.370345323131481E-1  -2.885740662014022E1   8.502807597758957E-2  -2.906457026911698E1  -3.697646050536511E1   2.647770355654097E1  
 1.110000000000000E9    -5.637713610436904E1   1.545651467654252E2   3.562372060155742E-2  -2.897476960050675E1  -5.728171357659965E-2  -2.891761928633933E1  -5.841000015223572E1  -3.369108117358948E1  
 1.120000000000000E9    -5.065881698793241E1  -1.275737095429212E2   9.677936087094539E-2  -3.001759841574274E1  -2.868434305976499E-2  -2.957573399709063E1  -3.398976343694059E1  -1.477962831356957E2  
 1.130000000000000E9    -5.042303503739268E1   1.918621296621883E1  -5.906565447335919E-2  -2.987582078237264E1  -7.536109339634708E-2  -2.946212702876335E1  -4.276963136770331E1  -1.288316014766627E2  
 1.140000000000000E9    -5.653631025327605E1   2.447444504281540E1   6.451885337072760E-2  -3.020632786999347E1  -2.948111356634805E-2  -3.017893001327935E1  -3.433306129336997E1   1.323109920705895E2  
 1.150000000000000E9    -5.474513098067830E1   5.115578690971132E1   1.427627416986784E-1  -3.051573522990919E1  -1.682830171122212E-2  -3.035755987451334E1  -4.463502660796659E1  -2.025639485298441E1  
 1.160000000000000E9    -6.040224829702688E1  -3.147107480695256E-2   6.055066412031794E-2  -3.150773892812843E1   4.347152716657516E-2  -3.044483782852660E1  -4.071580184411594E1   5.715740553991615E1  
 1.170000000000000E9    -5.913412722142446E1   1.182104183366699E2   3.257228254872834E-2  -3.073920502116575E1  -8.609797474431670E-2  -3.041774139615085E1  -3.851123563118038E1  -1.754663665529867E2  
 1.180000000000000E9    -6.640084529284667E1  -1.065705038337351E2   9.728442878367572E-3  -3.048137337529637E1  -5.774550679174286E-3  -3.115146269596748E1  -4.148927279709164E1  -4.441474982369230E1  
 1.190000000000000E9    -5.538995105769274E1  -6.676351398975717E1   5.227815182579385E-2  -3.048155040902239E1   8.996441382152490E-2  -3.102744953166704E1  -3.578676033707195E1   2.895227026986064E1  
 1.200000000000000E9    -6.317375098274112E1  -4.207580370653124E1   1.994343965522738E-2  -3.111525812692587E1  -7.993534077491314E-2  -3.137595334727408E1  -4.036721221584386E1  -1.316734361197161E2  
 1.210000000000000E9    -6.040616147656260E1  -3.757925755244850E1   1.217427987246096E-2  -3.129746752983856E1  -2.882611088251325E-2  -3.165587909669380E1  -4.066225006955801E1  -1.196359377841235E2  
 1.220000000000000E9    -5.544343862598392E1   1.085854937471882   5.319853926297429E-2  -3.237922671519495E1  -6.173322377978580E-2  -3.164656905752426E1  -3.511746375589207E1  -1.655019114624747E2  
 1.230000000000000E9    -5.538203652414287E1   2.061768980904647E1   8.031971208636711E-2  -3.203565436843939E1  -2.346152740618912E-2  -3.243136590556636E1  -4.311432450612858E1  -1.047765578880525E2  
 1.240000000000000E9    -5.359147139109011E1  -7.662456482279401E1   4.145873741998191E-2  -3.299497713779822E1   2.022409469737954E-2  -3.252283996450973E1  -4.504962276316434E1   1.436845300909758E2  
 1.250000000000000E9    -4.913128795944751E1  -1.723134368805237E2   6.288332938337961E-2  -3.311062877885127E1  -2.353986117039079E-2  -3.298714573844109E1  -4.535111504469901E1   6.940369676768080E1  
 1.260000000000000E9    -5.491522131473341E1   1.323171599998922E2   8.259852833127780E-3  -3.316598199582293E1  -2.282929700823105E-2  -3.330249681883274E1  -3.783326235042216E1  -3.558583971177294E1  
 1.270000000000000E9    -4.949645751937054E1  -3.065576046186353E1  -6.181145276415022E-2  -3.328360977906550E1  -6.495289302628764E-2  -3.339494840047983E1  -3.518822852317172E1  -5.860622409155659E1  
 1.280000000000000E9    -4.753338803348979E1  -5.301474754685538E1  -1.236403634046847E-2  -3.385654641262611E1  -3.311457834530256E-2  -3.375919127413052E1  -3.912909045294389E1  -4.719169729227745E1  
 1.290000000000000E9    -4.938985056829726E1  -8.607962183306816E1   2.678562394183636E-2  -3.420384460918781E1  -4.177867250308968E-2  -3.400753371844608E1  -7.241610736667855E1  -2.441473740710201E1  
 1.300000000000000E9    -6.131651163837757E1  -1.512829791381329E2   5.003444125085405E-2  -3.421370094913178E1  -4.315480595735409E-2  -3.418669041230251E1  -4.774605742391512E1   1.035214332831564E2  
 1.310000000000000E9    -5.336528474583998E1   1.650823102488584E2   7.129781618025070E-2  -3.488967024130906E1   3.989241911848366E-3  -3.409897166399928E1  -3.960458403831979E1   1.036602342584840E2  
 1.320000000000000E9    -4.796187565368817E1   1.056534182729603E2   1.235903110151143E-2  -3.503134204629227E1   5.995690625425378E-2  -3.498778575133522E1  -4.444769329355041E1  -2.176667241797118E1  
 1.330000000000000E9    -5.915492370511571E1   3.159067893500010   4.110015836656903E-3  -3.575224554951998E1   1.109041759708324E-2  -3.467823422381807E1  -4.084321748127540E1   1.743404675595227E2  
 1.340000000000000E9    -6.502678663947894E1  -1.671198514239513E2   5.534744128265012E-2  -3.497952389428518E1  -2.427445240420189E-2  -3.520606096825573E1  -4.159972895663961E1  -4.970242549570894E1  
 1.350000000000000E9    -5.017103726151146E1  -8.501965510252573E1   7.756334731235900E-2  -3.588394022456475E1   2.945741441803667E-2  -3.537908579050655E1  -3.727194803639656E1   5.590825174192013E1  
 1.360000000000000E9    -5.498467888722801E1  -6.178936855847574E1   6.268331181081986E-2  -3.581413636660945E1  -5.015312741170416E-2  -3.521669994300195E1  -3.980251296014745E1   1.495298857703622E1  
 1.370000000000000E9    -8.052102560764189E1   7.587172059780723E1   2.485236740331206E-2  -3.605161225852835E1  -6.342379572820552E-2  -3.638014481351684E1  -4.555203929402126E1  -1.561248636030613E1  
 1.380000000000000E9    -5.767346622127359E1   1.372018386412745E2   5.222547079925163E-2  -3.634833659538196E1   3.201750660020161E-2  -3.628838385322970E1  -4.321061475175138E1   1.167850010756001E2  
 1.390000000000000E9    -5.498683471760074E1   9.264198024858447E1   2.090308960396329E-2  -3.675242064440786E1   2.401886612704817E-2  -3.640659765153321E1  -4.612481634763949E1  -1.247187725611935E2  
 1.400000000000000E9    -5.691890561403526E1   6.347273098297972E1   4.557748005270435E-2  -3.681242344306284E1  -5.605190234711835E-3  -3.703569429564623E1  -4.203413301234230E1   2.314995318433648E1  
 1.410000000000000E9    -6.129908390664586E1   9.320553981762444E1   8.150019882827739E-2  -3.646780165153321E1  -1.925097906686553E-2  -3.682570752292368E1  -4.232701924468728E1   6.684397963129880E-1  
 1.420000000000000E9    -5.058382043116765E1  -1.416134431210270E2  -2.333585395065840E-2  -3.744496136726482E1   2.586607623446089E-3  -3.747867603367767E1  -4.306093103835693E1   5.911234920690137  
 1.430000000000000E9    -5.266790198802111E1  -1.282266904095046E2   9.929342310444829E-2  -3.716850706096635E1  -3.544657939492222E-2  -3.773153010234529E1  -4.713238682543125E1  -4.360224878268281E1  
 1.440000000000000E9    -6.649067454979914E1   7.210709120233014E1  -3.925220421797941E-2  -3.742975584375855E1  -1.092195562169463E-2  -3.817916393829342E1  -3.763852214751039E1  -2.855997982565016E1  
 1.450000000000000E9    -5.904444271371897E1   7.240311244998976E1   9.094773297582656E-2  -3.830389631231973E1  -6.815423945566113E-2  -3.778431665277569E1  -5.285782813180284E1  -3.812071747338663E1  
 1.460000000000000E9    -5.307250325365828E1   1.957008920942785E1   2.679259696946832E-2  -3.864784381613814E1   6.424946554565970E-3  -3.829912139527708E1  -5.446834207131555E1   1.747555616660412E2  
 1.470000000000000E9    -4.737728672167490E1   1.704539836261938E1   3.266740801592972E-2  -3.787646609844497E1   9.081260159898184E-2  -3.883843591787203E1  -3.404080951616928E1   9.107775805473887E1  
 1.480000000000000E9    -5.311205787816053E1   1.715650528432784E2   5.603050617448191E-2  -3.902293962530249E1  -6.194945817486028E-2  -3.894309932289541E1  -5.013550536196834E1   1.703839409267796E2  
 1.490000000000000E9    -5.808124878043708E1   1.396779756091518E2   1.873352490782461E-2  -3.920381437682546E1  -5.192213248357151E-2  -3.892466276115383E1  -4.621386953113446E1  -1.436248295596077E2  
 1.500000000000000E9    -6.127861012645234E1   1.775336291750149E2   3.617112234528505E-3  -3.945090350423038E1  -1.403990390249537E-2  -3.930660830977526E1  -4.481358113898673E1   4.368724616261787E1  
 1.510000000000000E9    -5.424798904845321E1  -2.258362884987772E1  -2.331441409775282E-2  -4.040585032196418E1  -2.501995909972981E-2  -3.943120879710056E1  -3.763997271704258E1   2.786361674067697E1  
 1.520000000000000E9    -6.198647198691663E1   1.272101246878664E2   1.741591886349028E-2  -3.985236086923906E1  -2.605827015020909E-2  -3.979809870541309E1  -4.649116354211742E1  -9.247474660239131E1  
 1.530000000000000E9    -5.931750751281447E1  -1.466775960821400E2   8.178256144805725E-2  -4.075395313310577E1  -7.426888123402596E-2  -4.025754296780594E1  -3.645440129338876E1  -9.077244060019287E1  
 1.540000000000000E9    -5.819450806482899E1  -1.006199292033038E2   1.132954637867050E-2  -4.025739029776709E1   9.039159073912097E-2  -4.054302864898097E1  -4.209420038922355E1   3.928753885629421E1  
 1.550000000000000E9    -5.414271660786713E1   9.226982878554736E1   2.151175460667796E-2  -4.083179478303699E1  -2.950576526785857E-2  -4.097617842702075E1  -4.216294569881208E1   1.177212934226410E1  
 1.560000000000000E9    -4.855709156563985E1   1.113281249639941E2   1.202542341380931E-1  -4.111646163783627E1   7.360639990582350E-3  -4.105686310353173E1  -4.604830527388468E1   1.152338660560528E2  
 1.570000000000000E9    -5.197026309363081E1   7.897383767116163E1   9.365205119085239E-2  -4.145791412364934E1   2.872417862215980E-2  -4.120685244544439E1  -4.854654759511978E1   8.125438375045167E1  
 1.580000000000000E9    -6.459552374027300E1  -1.812889592328219E1   5.706447121422904E-2  -4.176809952574826E1   3.369982047218106E-2  -4.166684274108891E1  -4.425053537253871E1   1.338828262172121E2  
 1.590000000000000E9    -5.446777952711891E1  -3.119911980693762E1   7.562381307953246E-2  -4.158000028238657E1   1.488064629981983E-2  -4.156646387121032E1  -4.926133677260193E1   4.253993063258861E1  
 1.600000000000000E9    -5.399372469637845E1  -2.179700610196229E1  -5.998987922768632E-2  -4.208977101136490E1  -2.884393847338446E-2  -4.156694800232387E1  -4.273301894022162E1  -3.749147073204744E1  
 1.610000000000000E9    -6.899193059675260E1  -1.331408757492013E2   2.754233288271814E-2  -4.203761343829090E1   2.305697005941741E-2  -4.248346040543810E1  -5.711119076389733E1   8.469627068014515E1  
 1.620000000000000E9    -5.449305288149166E1   1.109936047758134E2   6.203907639468730E-2  -4.320062516749150E1  -2.140147437872634E-3  -4.206935444931469E1  -3.972031951123432E1  -1.449141745152815E2  
 1.630000000000000E9    -5.126899884524632E1   8.992206165743120E1   4.404454492979198E-2  -4.298334381152022E1  -2.781025083216945E-2  -4.260138303963844E1  -4.294361665126243E1  -1.310602794816203E2  
 1.640000000000000E9    -5.331570929265534E1   7.378700315641085E1   7.292716189706738E-2  -4.309956674026054E1  -4.455940623673561E-2  -4.287869500228655E1  -3.897254006624780E1  -1.590120094817379E2  
 1.650000000000000E9    -5.966220261284103E1  -7.901551692994198   4.588206239259174E-2  -4.346813826554489E1   4.995685812513704E-3  -4.327315060213091E1  -4.363210894271691E1  -1.206058116966189E2  
 1.660000000000000E9    -5.602901670071097E1  -7.487141580069979E1   3.702854057352654E-2  -4.361629389463295E1   1.894009289053987E-2  -4.341524351448400E1  -4.516244986615950E1  -1.230395346764517E2  
 1.670000000000000E9    -5.607444247093083E1  -8.693897977170467E1   6.377719150700872E-3  -4.365660136639480E1   1.729177732205109E-2  -4.360649429820050E1  -5.519000103311038E1  -5.299720559253988E1  
 1.680000000000000E9    -7.821244457487900E1   1.425236124474480E2   3.253078607875443E-2  -4.417299358356976E1  -8.568244145372859E-3  -4.379077335717489E1  -4.888402659102762E1   1.763559542595174E2  
 1.690000000000000E9    -6.204881097941378E1   3.395813766349207E1  -1.698905402043050E-2  -4.414555964091808E1  -2.694508017301688E-3  -4.440681332830000E1  -5.542558181771102E1   1.376944517236942E2  
 1.700000000000000E9    -5.167708462318439E1   6.436512392379135   2.835973543286207E-2  -4.520210122446709E1   3.278180852244037E-3  -4.450358935947264E1  -4.204385152711974E1   1.276948807222624E2  
 1.710000000000000E9    -5.769386707429760E1   1.120219842769570E2  -4.388533533018319E-2  -4.502105967247438E1   1.586898715126941E-3  -4.484790739800578E1  -4.553549585183027E1   3.973340445164806E1  
 1.720000000000000E9    -6.926878923806827E1  -7.212925971866450E1   4.796959258768821E-2  -4.516729129621769E1  -2.312274142201429E-2  -4.501505790100116E1  -4.552461890926476E1  -1.480870098664085E2  
 1.730000000000000E9    -5.696022122678453E1  -1.083832122077766E2   5.134384369108345E-2  -4.548997647406965E1  -3.973436586730999E-2  -4.501687947317060E1  -4.963273724741453E1  -2.983944932902801E1  
 1.740000000000000E9    -5.740252769089872E1  -1.018878469636404E2   1.261850068821151E-2  -4.551192754120879E1  -4.528942596949038E-2  -4.571887493920871E1  -4.168927921724587E1  -2.294142912240800E1  
 1.750000000000000E9    -5.529794545135410E1  -7.586779829743259E1   8.839271526522089E-3  -4.615028090194918E1  -5.080402468341676E-2  -4.603924249634026E1  -4.141048671467718E1   3.807168962069542  
 1.760000000000000E9    -5.585167225336622E1   5.113959817427804E1   5.043204665539478E-2  -4.636563062784980E1  -3.592928844707740E-2  -4.580582479106198E1  -4.505552349366757E1   1.454942441323108E2  
 1.770000000000000E9    -5.720414101305464E1  -1.775417555144243E1   4.273290737554769E-2  -4.698419060847087E1   3.696469204704513E-2  -4.622323380614522E1  -4.953429069632433E1   5.961724272503248E1  
 1.780000000000000E9    -5.899176808112907E1  -2.293993013632152E1   5.048589838318934E-2  -4.655267962197636E1   1.968063861154521E-2  -4.682212662240126E1  -4.658830086411860E1   1.107426677228641E2  
 1.790000000000000E9    -6.013698011922516E1  -1.604095800717615E2   6.592651331555660E-2  -4.692499092295196E1   1.896726078065912E-2  -4.670053313757818E1  -4.798862856045938E1   1.752257050374182E2  
 1.800000000000000E9    -6.523597325814666E1   1.761496883391656E2   1.500621035493686E-2  -4.778807603245607E1  -1.192705318158587E-2  -4.726640683727334E1  -4.869280466304528E1  -1.466101951219695E1  
 1.810000000000000E9    -5.623947709703764E1   1.267796496078003E2   7.753006433160274E-2  -4.740305011551381E1   2.951355598998671E-2  -4.755544803742360E1  -5.294937405164472E1  -1.129144664758424E1  
 1.820000000000000E9    -6.336220335199986E1   4.035861801030720E1   3.898191834475336E-2  -4.759940984919543E1  -5.989298641558430E-3  -4.764952490155952E1  -4.773431265680469E1   8.320697380332140E1  
 1.830000000000000E9    -5.433323399001696E1  -4.120710017292007E1   4.001542041220826E-2  -4.808643426981252E1  -2.074643626336149E-2  -4.813572184027142E1  -4.922278735520250E1  -7.529935009182096E1  
 1.840000000000000E9    -5.583179291433945E1  -5.268820984064382E1  -3.609227215028738E-2  -4.859148221571731E1   3.346157380004945E-2  -4.799572790192446E1  -3.869454016533835E1   1.663337304391751E2  
 1.850000000000000E9    -6.051875399530942E1   1.313769783850090E2   4.802589458425635E-2  -4.880541400061031E1  -3.842841876496479E-2  -4.891387631665518E1  -3.866326747526514E1   8.503945368160753  
 1.860000000000000E9    -5.825719037383299E1   4.802375692728018E1   1.429338540763474E-2  -4.888476653460783E1  -4.971217519942798E-2  -4.889331153829730E1  -4.918219852723880E1  -1.864051559136748  
 1.870000000000000E9    -5.269485848653612E1   7.044089005837103E1   5.803646718762349E-2  -4.930815190326639E1   1.247898519675694E-2  -4.922828400647408E1  -4.191229555262903E1   7.964275188316535E1  
 1.880000000000000E9    -6.295341069161619E1  -1.439673557864439E2   1.377400032110795E-2  -4.935011311290189E1  -6.781132185121647E-3  -4.927206573002389E1  -5.037658214498352E1  -1.140542359289310E1  
 1.890000000000000E9    -4.803242288569540E1  -6.821295980911921E1   5.677944653461101E-2  -5.009736711357640E1   6.436990330250308E-2  -4.960188724575923E1  -4.679699779074208E1  -1.511401236820717E2  
 1.900000000000000E9    -6.128214443980906E1  -5.236021544879037E1   3.075687015019840E-2  -4.970992133953412E1  -2.505949633991129E-2  -4.974001423458175E1  -5.673259799712726E1  -8.546443117067622E1  
 1.910000000000000E9    -5.837675496124311E1  -1.224092826512833E2   7.229872243121738E-2  -5.004992514168333E1  -2.920893934088836E-2  -5.014404942701810E1  -5.887212613816499E1  -2.467042473578970  
 1.920000000000000E9    -6.086121641188851E1  -8.187823658143647E1  -2.746590613808110E-3  -5.050879073645336E1   3.951628588424111E-3  -5.014634496328755E1  -4.742587352819329E1  -7.350828730834855  
 1.930000000000000E9    -5.212772420221479E1  -8.916402170635973E1  -1.915944100675940E-2  -5.064997111352738E1  -5.328719114908518E-2  -5.068711036971740E1  -4.021796612889006E1  -1.204231433989563E1  
 1.940000000000000E9    -5.662179533848342E1  -4.197925588212799E1   3.558501649458930E-2  -5.111304371065663E1   2.253174579445482E-2  -5.091558715590294E1  -4.583908925620714E1   9.248250902592672E1  
 1.950000000000000E9    -6.098195260357901E1   8.045346136058041E1   4.443774134236499E-2  -5.083735620745715E1  -2.364331316424365E-2  -5.106509766282066E1  -4.061524960904474E1   7.523315622336176E1  
 1.960000000000000E9    -6.080480247918214E1   1.738915385890060E2   6.117515878823671E-3  -5.151232618517503E1   2.156739165369416E-2  -5.119346161613593E1  -4.559989384100228E1   1.663282250932769E2  
