#  HZ   S   DB   R     50.00 
! Rohde & Schwarz ZVA40 4Ports - Version 4.11 - 1145.1110k42 SN: 100337
! Date: 2025-12-16 12:53:15
! Measurements: S11 S41 S14 S44 
! 
 1.000000000000000E9    -5.974477633373022E1   2.455535630576320E1   5.970041270811115E-2  -2.645389281158431E1  -3.703686151774452E-2  -2.608730435771133E1  -3.899726930402690E1   1.749418888886737E2  
 1.010000000000000E9    -5.560519245010121E1  -7.499878743618720E1   8.741678260208234E-2  -2.630870721975195E1   6.493654224039433E-2  -2.680344249334247E1  -3.945525692782624E1   4.848034833506917E1  
 1.020000000000000E9    -5.146718505823301E1   1.211000632616849E2  -1.454506613082751E-2  -2.709990504584177E1  -7.173723255381963E-2  -2.704383729232246E1  -4.417153354120507E1   1.726664834233807E2  
 1.030000000000000E9    -5.182826684027373E1   1.302734089351685E2   6.438030579098848E-2  -2.760862509294890E1   1.495520938618996E-2  -2.711811259666129E1  -4.414018323403460E1   1.600995379028233  
 1.040000000000000E9    -6.537082713725964E1   6.031031582275779E1   6.005141186552189E-2  -2.735657473733233E1  -4.693389912098033E-3  -2.722262480270599E1  -4.704330418465171E1   8.499342637386816E1  
 1.050000000000000E9    -5.595889416754983E1  -8.471909564697544   9.626173949190355E-3  -2.761466053059889E1   5.015454485764235E-2  -2.749278476436286E1  -5.164825418882592E1  -8.353245239424244E1  
 1.060000000000000E9    -5.117337924582368E1  -1.053374872473902E2   8.001468563008074E-2  -2.856389421720837E1  -3.816351307160445E-2  -2.808570787773904E1  -3.166907620843772E1  -9.595001036987813E1  
 1.070000000000000E9    -4.556736412654634E1   1.788202794234101E2   6.632733529482113E-2  -2.918281751069394E1  -6.396157849473241E-3  -2.837276568610053E1  -4.415139793328905E1  -1.108542740300288E2  
 1.080000000000000E9    -5.003121356496133E1   6.752359230809283E1  -1.966165219051853E-2  -2.882108904593597E1  -2.778986500910978E-2  -2.835894494575378E1  -4.727107815138248E1  -1.177460978798391E2  
 1.090000000000000E9    -5.132026345010070E1   1.339115836279314E2   9.044634638785226E-2  -2.849055923334510E1   2.933536188093611E-2  -2.861919857973996E1  -5.089296950166553E1   1.117164710158784E2  
 1.100000000000000E9    -4.694406117562976E1   5.275932418258608E1   1.308372249105778E-1  -2.897579058580543E1   1.085299345547221E-1  -2.881543873163951E1  -4.021862714110491E1   1.502169362004349E1  
 1.110000000000000E9    -5.722910093545121E1  -1.252325400862371E2   5.630995083091941E-2  -2.904132217758426E1  -3.275921796922635E-2  -2.943085154210080E1  -4.156025479764440E1  -7.227653622693967E1  
 1.120000000000000E9    -5.086145762225841E1  -1.261244050387167E2   9.764947921657768E-2  -2.999476546799741E1  -2.354886906769771E-2  -2.958272010642006E1  -3.423708906613148E1  -1.286311776393876E2  
 1.130000000000000E9    -5.288242237484157E1   2.890426483568054E1  -5.729282553774547E-2  -3.008410925232115E1  -3.661952566730783E-2  -2.947471403384330E1  -5.683092978109315E1  -9.174954626986339E1  
 1.140000000000000E9    -5.223896813535774E1   4.796554527570711   5.630893260944522E-2  -3.019084455390739E1  -1.107201040582955E-1  -3.024102769741161E1  -3.926043473683219E1  -1.781943150356858E2  
 1.150000000000000E9    -5.814184329487966E1   8.958755299466377E1   1.426445843376840E-1  -3.063505765935644E1  -5.081697456853532E-2  -2.962908999622422E1  -3.941403705421953E1   1.066166888880904E2  
 1.160000000000000E9    -6.477412279425887E1  -4.996081624759673   6.576285776334159E-2  -3.139446437569933E1   2.289748112046367E-3  -3.048706033045909E1  -4.231866004802008E1  -1.194891857087576E1  
 1.170000000000000E9    -6.289043763799472E1   8.713628075905760E1   4.735531250646477E-2  -3.078239444600748E1   1.779315039818122E-2  -3.026571765054893E1  -4.394544881579763E1   8.721334272225080E1  
 1.180000000000000E9    -6.585956167912381E1  -1.442820061319312E2   8.728941718942989E-3  -3.061301059367797E1  -6.537755633503330E-2  -3.119053419946495E1  -4.146993518942590E1  -9.627186021125915E1  
 1.190000000000000E9    -5.787914162495428E1  -7.986301952719613E1   5.700847099644632E-2  -3.051456650744662E1   1.088594998480325E-2  -3.123321313389221E1  -3.749728739497008E1   2.237003008209252E1  
 1.200000000000000E9    -6.260626830275260E1  -6.921212030057124E1   1.471145231266331E-2  -3.112612124723593E1  -3.169371802226211E-2  -3.148670985312320E1  -4.752083690014383E1   1.050462024937060E2  
 1.210000000000000E9    -5.267622131534483E1  -5.196608161090113E1   1.280240929996492E-2  -3.109982585457502E1  -7.158564186318318E-2  -3.110052241613523E1  -3.922714531542275E1   1.652857596993220E2  
 1.220000000000000E9    -6.883906705294096E1  -4.921741617583699E-1   3.186534101034363E-2  -3.246296035884811E1  -8.691234868000684E-3  -3.119370171272591E1  -3.784346990194008E1   1.211568265771700E2  
 1.230000000000000E9    -6.395933352626462E1  -1.379224154502352E1   8.826092557223607E-2  -3.212366542857066E1  -9.105361377244881E-2  -3.234088382410187E1  -4.067959320611158E1  -1.260922436153121E2  
 1.240000000000000E9    -5.263697578681053E1  -8.644488949913679E1   4.490819901384436E-2  -3.297152441494873E1   4.774618687245446E-3  -3.267963184252868E1  -4.590849563299553E1   1.366398383132252E2  
 1.250000000000000E9    -4.907326003192534E1  -1.732099009328420E2   5.724245918060555E-2  -3.329458751022078E1  -2.367961069450373E-2  -3.281266443479466E1  -4.588213439236895E1   1.015194247096643E2  
 1.260000000000000E9    -5.634043249274541E1   1.385277251978058E2   2.737454448069344E-2  -3.304484106585372E1  -4.460612047322132E-2  -3.323112997595030E1  -4.099620271026407E1  -9.977021292301514E1  
 1.270000000000000E9    -5.390556838173652E1  -3.633930802848391E1  -3.894685103719742E-2  -3.327616469912761E1  -2.416656284905103E-2  -3.332726301158837E1  -4.094474926816862E1  -8.473662119194194E1  
 1.280000000000000E9    -4.709446245957818E1  -5.815773285778094E1  -6.427507336007726E-3  -3.389404087208875E1  -4.818400085791465E-2  -3.381408177759914E1  -4.445979907894062E1  -1.152120021300715E2  
 1.290000000000000E9    -4.782754773595102E1  -7.401480341481114E1   5.784062280874874E-2  -3.420622721253039E1  -2.733931641637863E-2  -3.418334683990019E1  -4.399145408806158E1  -1.004081602961617E2  
 1.300000000000000E9    -5.564519571032765E1  -1.264650435201426E2   3.974747406887901E-2  -3.425195053145708E1   2.864685908283045E-4  -3.427955197307983E1  -4.165837926758969E1   3.541077813031050E1  
 1.310000000000000E9    -5.710050979026201E1   1.463231484578033E2   5.130703826516039E-2  -3.490197242358651E1  -1.567318958322315E-2  -3.402378744886996E1  -4.975736647603353E1   9.928630176751884E1  
 1.320000000000000E9    -5.013585942310846E1   8.971329390772826E1   2.421074498327075E-2  -3.511789468255105E1  -5.282905060804540E-3  -3.489180323850812E1  -4.821075714751117E1  -5.562342478780855  
 1.330000000000000E9    -5.547691954753878E1   3.972208036045142E1   2.099712873980944E-2  -3.579192680014852E1   4.602131525839164E-2  -3.476991942781533E1  -3.537835457312654E1   1.516691507759125E2  
 1.340000000000000E9    -6.006334764338906E1  -1.306591105573438E2   6.399517666847426E-2  -3.496883404484051E1  -3.575100824406243E-2  -3.540695679306581E1  -3.686457781325306E1  -8.197035244285537E1  
 1.350000000000000E9    -5.004472439543392E1  -7.883337866841595E1   5.789994632938900E-2  -3.585676880664748E1   6.831500770758678E-2  -3.533404551251724E1  -3.793534405232307E1   6.774781340759174E1  
 1.360000000000000E9    -5.353683605650216E1  -6.503622903468052E1   6.788813900963056E-2  -3.574585317744620E1  -3.771199455151349E-2  -3.517084234398586E1  -4.278399931760882E1   5.597648122389533E1  
 1.370000000000000E9    -5.846345305393738E1   2.747039390001318   1.540638856370095E-4  -3.613278866630855E1  -1.248112287816796E-1  -3.598797711287681E1  -4.342364079883300E1  -1.538216454475478E2  
 1.380000000000000E9    -6.221153769518671E1   1.189173165149428E2   4.908656483550919E-2  -3.638369108786855E1  -2.986147206256137E-2  -3.617345090407885E1  -4.353339152069851E1  -1.610977836303443E2  
 1.390000000000000E9    -5.560296686664874E1   8.174513593261345E1   2.172500607631837E-2  -3.685431057379596E1   1.230106861755189E-3  -3.652050770564497E1  -4.960684081596347E1  -1.650208044929781E2  
 1.400000000000000E9    -6.142469457665120E1   6.188408559131656E1   2.999012045593123E-2  -3.670575240703568E1  -4.063939715819827E-2  -3.712796606444266E1  -4.313492722968066E1  -5.659971134904356E1  
 1.410000000000000E9    -5.901944100443495E1   1.231158309454002E2   7.058788227557489E-2  -3.652187259805643E1  -3.983781710558929E-2  -3.664988784107767E1  -4.347461447676250E1   3.632198652954470E1  
 1.420000000000000E9    -5.101676816957431E1  -1.391707138941287E2  -9.289430189463184E-3  -3.746901081001879E1   4.587302829302468E-3  -3.745663017096320E1  -4.402606760013930E1  -2.577589285745699E1  
 1.430000000000000E9    -5.187525705109168E1  -1.303703817113415E2   1.089409307169845E-1  -3.727086561043339E1  -4.144954156045187E-2  -3.765364504052865E1  -4.655918579775567E1  -1.294482362824712E2  
 1.440000000000000E9    -5.685462920700213E1   1.353882352313305E2  -3.025978577705259E-2  -3.745938097667279E1   4.128475214193223E-2  -3.847718015203018E1  -4.045021386870297E1   2.365042719138934E1  
 1.450000000000000E9    -4.914592448655881E1   6.801800670949251E1   6.478303913503865E-2  -3.840744747676704E1   9.582639620937110E-3  -3.834811543141738E1  -4.680097081470314E1   5.626252161404895E1  
 1.460000000000000E9    -5.327373730354573E1   1.435606441164802E1   1.404212809946219E-2  -3.864394654237245E1   2.672277811107954E-2  -3.832008623476315E1  -3.871321898823790E1  -1.315075374746390E2  
 1.470000000000000E9    -4.881020013656632E1   5.217452351290226E1   3.316917854801980E-2  -3.787070246634778E1   1.727514279773105E-2  -3.846691293917073E1  -3.620583749793141E1   6.275074859183166E1  
 1.480000000000000E9    -5.026112982084064E1   1.245980903967043E2   4.267359986943217E-2  -3.900941888373166E1  -1.353969409863015E-1  -3.886433509039518E1  -3.597237656126649E1  -1.077718863926716E2  
 1.490000000000000E9    -5.057653418519735E1   1.706656652713081E2   4.286201906372920E-2  -3.916967767892897E1  -1.484152674269464E-3  -3.906107418457683E1  -4.128885916586405E1   1.576517329176241E2  
 1.500000000000000E9    -5.234504126814188E1  -8.166439893584884E1  -1.159362919410945E-2  -3.919301878824994E1  -7.559851342141843E-2  -3.905368344714713E1  -4.371115903580007E1  -1.606978184872198E2  
 1.510000000000000E9    -5.337337887153150E1   3.668390161955477E1  -3.426975558915855E-3  -4.033307042706024E1   3.076483587109044E-2  -3.952646678795590E1  -3.894161651973165E1   4.872652684151547E1  
 1.520000000000000E9    -5.571287709062258E1   1.668022751370997E2   3.895958614315324E-2  -3.994331531703028E1  -8.050472710465788E-2  -3.962185100277293E1  -3.888666249665992E1  -7.168771940046973E1  
 1.530000000000000E9    -5.180186193724438E1  -8.238945045252193E1   1.038256179621601E-1  -4.054649850478006E1   8.199759346003017E-3  -4.037087358442531E1  -4.106674479955191E1  -3.960608223866418E1  
 1.540000000000000E9    -5.619738761887565E1   4.339193378747643E1  -3.801495690332639E-2  -4.029372943046657E1   9.740888091815930E-3  -4.048521807149055E1  -4.762546793296065E1  -1.703628032916718E2  
 1.550000000000000E9    -5.649065907151827E1   8.025336043165922E1  -3.093266915492294E-2  -4.086094290724485E1  -9.176920976460888E-3  -4.077771918264070E1  -4.969237992547308E1  -4.497647720962561E1  
 1.560000000000000E9    -4.805809280792344E1   1.252716199401303E2   1.490707939535933E-1  -4.109753630635586E1   2.842158546656769E-3  -4.069596429041100E1  -3.490646572198173E1   1.736193076318330E2  
 1.570000000000000E9    -5.469343101584354E1   7.628654988601001E1   8.236692427936182E-2  -4.163009595956048E1   2.217699319650387E-3  -4.116727663462215E1  -4.316434399522133E1   4.092979384946071E1  
 1.580000000000000E9    -6.688352855462185E1   1.607343665404573E2   6.066433682468279E-2  -4.171391271763779E1  -4.078653858891763E-2  -4.183565698175254E1  -4.699353154880820E1   1.011649886216500E2  
 1.590000000000000E9    -5.503904483483499E1  -3.751742851623547E1   7.523344205078093E-2  -4.161731402324446E1   2.167810149912558E-2  -4.162051060337376E1  -4.232890969235741E1   1.282494025463846E2  
 1.600000000000000E9    -5.408490728644512E1  -1.084651685807896E1  -4.115343097605251E-2  -4.195586740796383E1  -7.077298444762692E-2  -4.190631783306918E1  -3.979210866610157E1  -2.632032678602871  
 1.610000000000000E9    -6.459916964567276E1  -8.619478491188629E1   3.931415519445493E-2  -4.194893112572646E1  -2.826311947571242E-2  -4.204454238623050E1  -4.364261935749022E1  -1.478887942453106E2  
 1.620000000000000E9    -5.429501834450816E1   9.913911884078165E1   6.517633361989636E-2  -4.324017696611364E1  -5.072301923058715E-2  -4.230149661209133E1  -4.055601880998294E1  -7.653982136129180E1  
 1.630000000000000E9    -5.119697053273143E1   1.016621180818334E2   3.569237410098563E-2  -4.313670407083369E1   3.817367315996179E-2  -4.228602827328271E1  -3.958667772537532E1   1.348716020351679E2  
 1.640000000000000E9    -5.668817699830539E1   5.222889372826995E1   4.854103283733268E-2  -4.309040859860981E1  -8.188882661109168E-2  -4.316453595491394E1  -4.285510743423281E1  -7.715825609630133E1  
 1.650000000000000E9    -5.795128579537390E1  -1.353903028505590E1   4.906431173162953E-2  -4.334922565730769E1   1.247556689189529E-2  -4.346411300006651E1  -4.199681987988928E1  -6.241785208382874E1  
 1.660000000000000E9    -5.393108825030971E1  -7.240564877041309E1   7.206884254217303E-3  -4.345193538936900E1   6.532463320859820E-2  -4.351329633556383E1  -4.198610800256576E1   1.043235540021724E2  
 1.670000000000000E9    -5.332549814386497E1  -7.509755283230177E1  -7.763517697939774E-3  -4.355141979702388E1   1.901943016360605E-2  -4.337641520705795E1  -3.666289618418531E1   1.662660810934339E2  
 1.680000000000000E9    -6.564199818289613E1   1.026368225394830E2   3.466206208114964E-2  -4.420775332375536E1  -1.481197774923867E-2  -4.400268580225347E1  -4.364429623156105E1  -6.725237031038052  
 1.690000000000000E9    -5.660698028088432E1  -7.379623659051594  -1.998014969149665E-2  -4.433489363795417E1  -2.512723414273883E-2  -4.438125821038425E1  -5.919341327507610E1   1.578226543887647E2  
 1.700000000000000E9    -5.466396113580147E1  -1.029309230004350E1   1.291201678791045E-2  -4.519834736294828E1  -2.507858661193807E-2  -4.446873976714126E1  -4.300181215883270E1   9.252763551174853E1  
 1.710000000000000E9    -5.882099432568955E1   6.765358111633059E1  -2.317634153852099E-2  -4.501482070763286E1   1.459440931786490E-2  -4.472320975991433E1  -4.932165274387413E1   4.550874686304708E1  
 1.720000000000000E9    -6.022656235176341E1  -9.773675507474879E1   6.468615669560671E-2  -4.528711379524163E1  -1.058590396594861E-2  -4.504804857557212E1  -4.200739873895871E1  -9.464262379611886E1  
 1.730000000000000E9    -5.796194839565709E1  -8.742858129772526E1   3.017090544953084E-2  -4.565256265451163E1  -3.989664332172205E-2  -4.490751046163906E1  -4.398740441673540E1  -5.856378818543328E1  
 1.740000000000000E9    -5.593617315736087E1  -1.083521153896751E2   1.182833397904299E-2  -4.544882303659077E1  -3.799815448338854E-2  -4.569252145793997E1  -4.259595081360893E1  -5.522745675331882E1  
 1.750000000000000E9    -5.920095779878137E1  -5.707342521601967E1   2.062878955501468E-2  -4.609099201237832E1  -2.468345088054564E-2  -4.600385690103962E1  -4.528853479776340E1   8.920617601835666  
 1.760000000000000E9    -5.426255276716791E1  -5.263533986386515   4.475449509057622E-2  -4.630830910609299E1   1.652684780469848E-2  -4.630750570563263E1  -3.858093691011690E1   1.089191953387481E2  
 1.770000000000000E9    -5.957524249689092E1   3.054127389325561   5.936751414216067E-2  -4.698833617455489E1  -1.273855468076639E-2  -4.629636507279934E1  -5.047771108812579E1  -2.428056394905093E1  
 1.780000000000000E9    -5.261117801766044E1  -3.006431461720472E1   2.799435063819463E-2  -4.656163065812089E1  -2.374071278315853E-2  -4.627912367170167E1  -3.653568052221665E1  -1.049571306756685E2  
 1.790000000000000E9    -5.919789167778400E1  -1.657354792102410E2   7.121613268482983E-2  -4.693370879475084E1   3.265243321424430E-2  -4.668378728074498E1  -4.047532026958623E1  -1.632278124271777E2  
 1.800000000000000E9    -6.196354608870795E1   1.675550465841726E2   3.542513574200942E-2  -4.785055204147005E1  -8.997649860419643E-3  -4.706973610472883E1  -4.541225457998775E1   9.950294914975456E1  
 1.810000000000000E9    -5.588033608984511E1   1.396154458303880E2   8.021257106529976E-2  -4.748650944815550E1  -1.361702698464329E-2  -4.730353393535599E1  -5.029005510376053E1   1.432134572113478E2  
 1.820000000000000E9    -6.013346577486255E1   4.761248355134777E1   4.253520707458790E-2  -4.761756614689409E1   2.819100671772308E-2  -4.767637142319812E1  -4.420194448550023E1   6.987688352015097E1  
 1.830000000000000E9    -5.508023135550398E1  -4.987456318170507E1   3.678566817236188E-2  -4.803147296258974E1  -4.433633293936904E-2  -4.820599161207023E1  -4.159001554260660E1  -4.130237531084725E1  
 1.840000000000000E9    -5.397544259496157E1  -5.222179826807314E1  -1.664612173287954E-2  -4.858345941791426E1   5.829392887719675E-2  -4.793281544895564E1  -4.150394541905276E1   1.115992024984146E2  
 1.850000000000000E9    -7.013806501597543E1   7.470691581861901E1   3.825697819023419E-2  -4.879526714742008E1  -4.845363045700236E-2  -4.858381289713526E1  -4.905125868134429E1  -1.176714638851123E2  
 1.860000000000000E9    -5.445728018300068E1   6.284550223488127E1   1.922530866236742E-2  -4.902980389864408E1  -4.004851024645551E-2  -4.900958669584346E1  -4.548995879006334E1   4.284497943370289E1  
 1.870000000000000E9    -5.457307057839741E1   9.473646364635127E1   6.669770532191575E-2  -4.931377505842990E1  -5.411350201562666E-3  -4.892105854376351E1  -4.275394126598102E1   1.020319996130311E2  
 1.880000000000000E9    -5.515901387451379E1  -1.263613490254058E2  -1.571797143377987E-2  -4.960710435419063E1  -2.489106325386600E-2  -4.923270391349980E1  -5.095816595985592E1   6.063216645173514E1  
 1.890000000000000E9    -4.940679628951610E1  -8.921181257891223E1   5.851780978836069E-2  -5.013728166499109E1   1.685257911978719E-2  -4.960481744353903E1  -5.230339041180777E1  -1.374577420314841E2  
 1.900000000000000E9    -5.971417459242981E1  -1.251920243899508E2   6.159924877834951E-2  -4.967642073158827E1  -3.737666174548118E-2  -5.000163567880939E1  -4.744286947628844E1  -1.120317481248233E1  
 1.910000000000000E9    -5.849192320133479E1  -1.693666055964146E2   8.990576819434863E-2  -5.012625736078527E1  -1.612771631290876E-2  -5.028676724172363E1  -4.361174415667063E1   6.334990145524296E1  
 1.920000000000000E9    -5.579838915215973E1   6.636385867627172E1   4.406662398675680E-2  -5.041788527542856E1   3.095236967451701E-2  -5.058231048974768E1  -4.444435689627039E1   1.160350141223899E2  
 1.930000000000000E9    -4.980722983325648E1  -1.089834943976023E2  -4.836054360688661E-3  -5.067214460085203E1  -9.143549337025986E-2  -5.048464276459264E1  -4.070993015083612E1  -2.813014678565572E1  
 1.940000000000000E9    -5.978697073749675E1  -1.202427239189534E2   3.362323226723676E-2  -5.107598416277540E1  -1.387741840923828E-2  -5.086780582409917E1  -4.514301785292874E1  -3.451255422144094E1  
 1.950000000000000E9    -6.179135646958519E1   1.952608822239967E1   4.306008756723628E-2  -5.087952781485339E1   5.922063825881918E-3  -5.100222741476659E1  -4.356408347592848E1   9.138335656060364E1  
 1.960000000000000E9    -6.892370684955000E1  -1.726611299120307E2   1.931427346995018E-2  -5.140413493040902E1  -3.343734998042998E-3  -5.125625307506430E1  -5.047707029652381E1  -8.537763121149339E1  
