#  HZ   S   DB   R     50.00 
! Rohde & Schwarz ZVA40 4Ports - Version 4.11 - 1145.1110k42 SN: 100337
! Date: 2025-12-16 12:53:27
! Measurements: S11 S41 S14 S44 
! 
 1.000000000000000E9    -5.776650804924632E1   2.018143456845148E1   4.827263945031029E-2  -2.638084626776259E1   1.257729147060235E-2  -2.616135350179106E1  -4.260499004691171E1  -1.625765612665823E2  
 1.010000000000000E9    -6.173953511068873E1  -8.458912116104840E1   7.754679811423468E-2  -2.632387231982555E1   1.050257204176699E-2  -2.669443377941753E1  -3.934410643999484E1   5.921980854394099E1  
 1.020000000000000E9    -5.077089270907195E1   1.213108970912335E2  -1.957049478752712E-2  -2.694883507861981E1  -7.414045301362628E-2  -2.726859694826534E1  -4.069705832480454E1  -1.731615201756698E2  
 1.030000000000000E9    -5.063127153706104E1   1.326256963073432E2   5.585416348221063E-2  -2.737069193249986E1   3.905684638020421E-2  -2.732384886407705E1  -4.528495489178046E1  -1.153762146093762E2  
 1.040000000000000E9    -5.577749998790569E1   1.464763653649507E1   5.151740988795606E-2  -2.763875008988902E1  -1.153043370726367E-2  -2.741983009099738E1  -4.035134821799930E1   1.218751818445436E2  
 1.050000000000000E9    -5.766314833308705E1  -8.954876970205197E1   2.867402295888396E-3  -2.759940267922684E1  -1.400064655031472E-2  -2.745201944053055E1  -4.313260571514393E1  -7.428463999094265E1  
 1.060000000000000E9    -5.324987713767029E1  -6.296157989831966E1   7.701189924772592E-2  -2.838783187870199E1  -8.797030187948626E-3  -2.764589929663260E1  -4.122108072149722E1  -1.009946389193706E2  
 1.070000000000000E9    -4.823519694898697E1  -1.575690301185770E2   6.917273645157622E-2  -2.899351183746104E1   4.488841771391052E-2  -2.809380329454085E1  -4.675961060572026E1  -1.184802049777189E2  
 1.080000000000000E9    -4.864550461900425E1   9.150654798732568E1  -2.321179270785660E-2  -2.884124087425451E1   1.852844441016255E-2  -2.872679828698397E1  -4.056921306998088E1  -1.586536361654668E1  
 1.090000000000000E9    -5.593627989572743E1   1.676268189429529E2   8.236853532550592E-2  -2.840499848849774E1  -2.896289047995389E-2  -2.855262518282032E1  -4.602794015121552E1   7.336589533415101E1  
 1.100000000000000E9    -4.795816564284222E1   2.913236343238356E1   1.324629928412381E-1  -2.887945154442016E1   6.518264790563108E-2  -2.935390358877579E1  -3.758837361017854E1   7.001375490499687E-1  
 1.110000000000000E9    -6.012013404584568E1   1.550763263244965E2   3.594678336205506E-2  -2.892401973134234E1  -3.782580080399946E-2  -2.892652593084829E1  -4.142110983409657E1   2.721882469281643E1  
 1.120000000000000E9    -5.449183319922988E1  -1.038790530788527E2   9.243876488873731E-2  -2.987864755489200E1  -3.797155317812684E-2  -2.912376875232597E1  -3.494113050896811E1  -1.778508974802358E2  
 1.130000000000000E9    -5.031041505253606E1   2.623407726796066E1  -4.939901507337245E-2  -2.993660301534029E1  -8.192389959888433E-2  -2.946700784624342E1  -3.936147772513821E1   1.563274290203865E2  
 1.140000000000000E9    -5.723999326418693E1   2.831688254507827E1   6.330486591885819E-2  -3.009223373982572E1  -2.160452014349887E-2  -3.018883282839483E1  -3.810761239458971E1  -1.781237814825328E2  
 1.150000000000000E9    -5.597275733321399E1   9.294247959806555E1   1.458474350732811E-1  -3.065886784803464E1  -2.272172172392070E-2  -2.953654176063885E1  -3.782820072199587E1   1.166090366635630E2  
 1.160000000000000E9    -6.498071964853676E1  -3.469164716404697   6.690281468947154E-2  -3.130324845524686E1  -7.211243576448921E-3  -3.054701329517026E1  -3.963381103088800E1  -2.222509858439263E1  
 1.170000000000000E9    -6.251993446051836E1   1.101927185722533E2   3.232589770443190E-2  -3.077133091204419E1  -2.499062920563159E-2  -3.066350909763433E1  -4.958683103502796E1  -1.782619205145485E2  
 1.180000000000000E9    -6.615245302511711E1  -1.408110480195068E2   2.177309053298175E-2  -3.052311776106897E1  -9.999038470499030E-2  -3.119291258470525E1  -4.456799925204702E1  -1.103921841933129E2  
 1.190000000000000E9    -5.680617808219532E1  -8.329247135248218E1   6.125347819750204E-2  -3.054867725401445E1   2.952652968527060E-2  -3.148311619596122E1  -3.544811013454528E1  -1.709353584055747E1  
 1.200000000000000E9    -6.137193799316194E1  -4.781740428172824E1   1.629540282369853E-2  -3.116222333588404E1  -5.044607015190628E-2  -3.117672205414612E1  -4.225496446381358E1   1.621432461183239E2  
 1.210000000000000E9    -5.915657928132377E1  -5.997678170204095E1   2.728962792915906E-2  -3.122746698500476E1  -2.320595075227649E-2  -3.160572017809599E1  -5.449568094431339E1   1.650708149764219E2  
 1.220000000000000E9    -6.304939942199224E1   8.638937285360758   4.497595515258272E-2  -3.232407910572678E1  -2.419836251224617E-2  -3.138047513752530E1  -3.606515164952105E1   1.626915359745050E2  
 1.230000000000000E9    -5.826727224410280E1  -5.042566085684100   7.659923819851296E-2  -3.225742450903618E1  -5.933075083423201E-2  -3.238316084764861E1  -3.844214170165250E1  -1.363583770113859E2  
 1.240000000000000E9    -5.908801249940328E1  -1.783140427359314E1   2.480317505311243E-2  -3.302059735318841E1   2.085303455654392E-2  -3.186478708427221E1  -3.762382510707291E1   1.091639858806652E2  
 1.250000000000000E9    -4.671275648775347E1  -1.692413442175185E2   8.466212549307961E-2  -3.329506953548437E1  -3.023963620331103E-2  -3.319251248848201E1  -4.768997417992589E1   1.265390788966790  
 1.260000000000000E9    -5.188243209660416E1   1.459441012103971E2   2.840945943974483E-2  -3.338145445054128E1  -8.848420022705516E-3  -3.329002980331923E1  -3.723886436098782E1  -1.639481511355113E1  
 1.270000000000000E9    -4.896966571235236E1  -1.879010401785336E1  -7.944513579644380E-2  -3.328626228965433E1  -4.211414059513409E-2  -3.359095858117217E1  -3.830696732914404E1  -6.328489853852609E1  
 1.280000000000000E9    -5.070009132367392E1  -4.485430845237504E1   1.335821603346284E-2  -3.362786648115039E1  -1.409534683488081E-4  -3.371746127232152E1  -3.501786650130887E1  -9.122321932543815E1  
 1.290000000000000E9    -5.144346897799532E1  -6.442763124256383E1   1.774680459795865E-2  -3.424567148419774E1   4.704434803903248E-3  -3.379855811936157E1  -5.147847517035594E1  -1.264454709028283E2  
 1.300000000000000E9    -4.991365613161566E1  -6.643221559979682E1   6.167281642561374E-2  -3.408425301166574E1   6.159977496361604E-2  -3.403035894302021E1  -4.145875937853824E1   7.322647570455668E1  
 1.310000000000000E9    -6.377841648618117E1   8.815311032893226E1   7.545743500924416E-2  -3.480124726736553E1  -6.379535709352857E-2  -3.384063974117638E1  -4.107707299565972E1   1.297433063024426E2  
 1.320000000000000E9    -4.996365697430588E1   1.130943462169789E2   3.734472947238591E-2  -3.505314934717629E1   2.173838430743042E-2  -3.465617416030329E1  -4.105400798248063E1  -8.073714961871694E1  
 1.330000000000000E9    -5.176613294935707E1   4.718818865535174E-1  -7.207444122227220E-3  -3.560107557729259E1   3.226463009842791E-3  -3.520880503627195E1  -4.904536195280783E1  -1.332438812990863E2  
 1.340000000000000E9    -5.872420057404985E1   1.720629349869804E2   5.754684260903356E-2  -3.508397520927943E1  -4.529160072071307E-2  -3.496577111917983E1  -4.626224746038775E1  -9.378173795207216E1  
 1.350000000000000E9    -5.120608008539753E1  -8.547140818565505E1   7.788356335465285E-2  -3.590024740894541E1   1.371485685369962E-2  -3.539832613547924E1  -5.288907132702183E1   1.067569225038377E2  
 1.360000000000000E9    -5.020415791946572E1  -7.634195129149046E1   7.979844000585566E-2  -3.577928437366711E1   4.066659102491927E-2  -3.517739847898244E1  -3.796323918148183E1   1.265055887560012E1  
 1.370000000000000E9    -6.549256570017884E1   9.252046477611178E1   5.370963925683925E-3  -3.619666365087105E1  -5.536783498593872E-2  -3.648126684816256E1  -4.014375375003798E1  -4.967647671824572E1  
 1.380000000000000E9    -6.112435322257316E1   1.305320003021680E2   3.863870467276745E-2  -3.623458405939454E1  -1.667358737846440E-2  -3.625936744025020E1  -4.144887705520952E1   1.753488805850020E2  
 1.390000000000000E9    -5.797762481277289E1   9.102484660622362E1   1.537532841096094E-2  -3.678086537378665E1  -2.317791526902268E-2  -3.627424251495186E1  -4.623548043578516E1   1.308242471254260E2  
 1.400000000000000E9    -5.818669680140526E1   8.984570467719313E1   3.563191067657987E-2  -3.680347184123309E1  -1.352621323568660E-2  -3.667897782861374E1  -5.803551889686419E1  -1.378468904190780E2  
 1.410000000000000E9    -5.779522492099124E1   1.084034997475079E2   7.769007247150783E-2  -3.655885170685984E1  -2.522405953084443E-2  -3.651451872480352E1  -5.030522754801037E1   9.175828090637914E1  
 1.420000000000000E9    -5.241248014554747E1  -1.455272563515744E2  -5.631740053438660E-3  -3.745006762416882E1  -2.095074534405076E-2  -3.730580966671988E1  -3.932841723810767E1  -9.338283770686155E1  
 1.430000000000000E9    -5.260614230493911E1  -1.122817369807188E2   9.837215597171495E-2  -3.697625563415348E1  -2.500691627247035E-2  -3.766129582024575E1  -4.595887334738046E1  -1.266332474043406E2  
 1.440000000000000E9    -5.576021280428999E1   1.210826386068589E2  -3.872909255070182E-2  -3.749164814897937E1   1.531962157387739E-2  -3.849919696069477E1  -3.946008387419894E1  -3.211573209031349E1  
 1.450000000000000E9    -5.442235872807538E1   3.741898897530162E1   5.880812632662859E-2  -3.831780271569593E1  -7.734259595808608E-2  -3.801284528399788E1  -4.492548315564260E1  -6.812176964581383E1  
 1.460000000000000E9    -5.467935108195927E1  -9.554102238563532   2.985308867399533E-2  -3.868444943937650E1  -3.177949164263310E-2  -3.838899739234748E1  -3.955904620884773E1  -1.741801360573807E2  
 1.470000000000000E9    -4.863733067176156E1   6.507376300882481E1   4.095284455761493E-2  -3.791526908874761E1  -1.963179682005605E-2  -3.840312156712427E1  -3.716909048542552E1   1.038095020314825E2  
 1.480000000000000E9    -4.761602138687859E1   1.462553934100350E2   3.364805725528936E-2  -3.913415594441729E1  -1.301872146281556E-1  -3.906358354345656E1  -4.178545260592486E1  -1.046697969750719E2  
 1.490000000000000E9    -4.874164666977079E1   1.401677582496317E2   4.721071734862847E-2  -3.935565671342724E1  -3.797518430655448E-2  -3.933722945196985E1  -4.507158798228969E1   8.728646518919301E1  
 1.500000000000000E9    -5.570969941746256E1  -7.911028264879920E1  -2.845397456535046E-2  -3.927064675149062E1  -6.445229728856974E-2  -3.904408020036465E1  -3.817874861534062E1  -1.129739171854439E2  
 1.510000000000000E9    -5.494897710501854E1  -1.346583974060430E1  -2.633381070825029E-2  -4.032565233039430E1  -2.175679879065007E-2  -3.948899103832265E1  -3.548481898175013E1   3.040608851736068E1  
 1.520000000000000E9    -5.975869120382220E1   1.730455735475469E2   2.838547011874824E-2  -3.983100795863795E1  -6.689559580981394E-2  -3.984603979088573E1  -4.128169040988516E1  -6.715634791625652E1  
 1.530000000000000E9    -5.687112278415211E1  -7.309770612285583E1   7.878310360537706E-2  -4.071210200022698E1  -2.292520541843500E-2  -4.008926929371465E1  -3.956889935620811E1  -1.141200870306289E2  
 1.540000000000000E9    -6.503315132455356E1  -6.782574079493910  -3.592519501808159E-2  -4.023924981590729E1   4.676651814694629E-2  -4.047583677223746E1  -4.025005416907554E1  -1.697804499960134E2  
 1.550000000000000E9    -5.325277777902752E1   1.389779500647868E2   5.247228062932254E-2  -4.082052279846088E1   2.001211509446601E-2  -4.074685413486937E1  -3.705876209898827E1   9.061446346350672E1  
 1.560000000000000E9    -4.901580365366237E1   1.139856430502855E2   1.276381973575001E-1  -4.110922700327476E1  -1.390295574384695E-2  -4.099110294013989E1  -5.341761913318972E1   1.106706564128273E2  
 1.570000000000000E9    -5.324015325232471E1   9.915765550538234E1   7.796103222507490E-2  -4.156244839424512E1  -4.862964050144166E-3  -4.093888170959001E1  -4.619546796876575E1   8.908311433407708E1  
 1.580000000000000E9    -6.751877502454377E1  -5.969672828056149E1   4.889918478940043E-2  -4.171211635622484E1   3.323043830282825E-2  -4.192593612121672E1  -4.210580680654389E1   1.544477471853122E2  
 1.590000000000000E9    -5.366034522429392E1  -2.671198318256502E1   6.609087476309007E-2  -4.155589789142780E1   1.262208895683312E-2  -4.144738556119371E1  -4.793516500496078E1   1.684297728213052E2  
 1.600000000000000E9    -5.460391412496822E1  -1.228591245489506E1  -4.647021782161215E-2  -4.198674496264543E1  -5.478846837254866E-2  -4.193658852830766E1  -3.846799828984280E1  -4.199070933180990E1  
 1.610000000000000E9    -6.663113573583111E1  -9.467252336803205E1   4.092193500519156E-2  -4.204449002434021E1   4.545145501386566E-4  -4.223330423712940E1  -4.522181976607982E1  -1.018771542586546E2  
 1.620000000000000E9    -5.472545029518990E1   1.031511839573105E2   6.154363415382607E-2  -4.327177772140641E1  -2.590283862636862E-2  -4.217585217026474E1  -4.300989466593987E1  -1.229221286450250E2  
 1.630000000000000E9    -4.964790923652443E1   9.445328753879835E1   4.317340167204305E-2  -4.307638203389183E1   4.609300237371109E-2  -4.272450371270275E1  -5.296974925424085E1   2.612349492398542E1  
 1.640000000000000E9    -5.289357525162217E1   5.776182215313586E1   5.087579424270853E-2  -4.310068639021271E1  -1.948040599452065E-2  -4.316727829067076E1  -4.519295618572161E1  -1.282521684711247E2  
 1.650000000000000E9    -5.956995694391401E1  -3.439856753205494E1   5.524892771262190E-2  -4.345118429320812E1  -1.895438292352306E-2  -4.352152263876462E1  -3.723529497640196E1  -9.233106040418770E1  
 1.660000000000000E9    -5.499432500715875E1  -5.733704856036822E1   3.185049454976589E-2  -4.332259471116360E1   3.301821394686683E-2  -4.344133256184207E1  -4.080095304205695E1   7.090359537492525E1  
 1.670000000000000E9    -5.847720025873211E1  -6.028185759927019E1  -3.972072051018933E-3  -4.379041272742473E1  -1.804513794113617E-2  -4.353465457673715E1  -4.266087103626918E1  -1.135834374716569E2  
 1.680000000000000E9    -6.637750498971184E1   1.059000688242845E2   4.031412665048569E-2  -4.430249272885062E1  -8.011999931847185E-3  -4.388347248617474E1  -5.415247422016616E1   1.010111836788446E2  
 1.690000000000000E9    -5.488819446797033E1   2.089302865008724E1  -7.892162835478249E-3  -4.415797736127800E1  -1.972706891511062E-2  -4.460077346950108E1  -4.507758218658580E1  -5.761560681704846E1  
 1.700000000000000E9    -5.416156117137629E1   6.903939476117886   2.848574001764387E-2  -4.524318249106517E1  -1.885701441659961E-2  -4.435695786068441E1  -4.887749103341436E1   1.344033893770738E2  
 1.710000000000000E9    -6.873125755306951E1   6.366221954968319E1  -2.387558920680031E-2  -4.502282732576834E1   1.862582763985081E-2  -4.498594443111130E1  -4.778341483122765E1   8.021397005003215E1  
 1.720000000000000E9    -5.597620307867197E1  -1.251183795798338E2   5.998497794148536E-2  -4.521727898726137E1   2.256200664119839E-2  -4.520974373777611E1  -4.258596717147344E1  -9.444532874633310E1  
 1.730000000000000E9    -5.917130523457374E1  -1.488823731728559E2   4.122720245700857E-2  -4.565404712420249E1  -4.905537728102034E-3  -4.513114182663310E1  -4.674717138493693E1  -3.254916438311205E1  
 1.740000000000000E9    -6.110069365529612E1  -6.903946849727346E1   6.665891117205485E-3  -4.561460363997613E1  -3.927361602365879E-2  -4.585729295334836E1  -3.770853572949730E1   3.553522305396789  
 1.750000000000000E9    -5.751826676705367E1  -1.217226115332995E2   2.553671023216650E-2  -4.608080554672140E1  -6.483355491820446E-2  -4.570147471727355E1  -4.794317090930255E1  -8.817937426916089E1  
 1.760000000000000E9    -5.519518021225954E1   2.446246509146515E1   3.454332820384093E-2  -4.622930071749553E1   1.985939884814282E-3  -4.604125370875295E1  -4.002416222259311E1   1.225296292358082E2  
 1.770000000000000E9    -5.591354184802388E1   1.370230532933063E1   4.149297062399128E-2  -4.698172774551466E1  -1.901572912327781E-2  -4.610784922164722E1  -4.664252012611748E1  -8.884532349131474E1  
 1.780000000000000E9    -5.619310122050063E1  -2.922575298544822E1   1.743167265947452E-2  -4.647980508994221E1   4.014564050284775E-2  -4.672936493312946E1  -5.027107857264592E1  -1.284240597673876E2  
 1.790000000000000E9    -5.905545006972810E1  -1.591730706409326E2   6.132140257095438E-2  -4.688417297553986E1   4.075986401854342E-2  -4.679539504223561E1  -4.421936205851423E1   9.252053206347372E1  
 1.800000000000000E9    -6.199965901514409E1   1.689327359552617E2   2.284995628306112E-2  -4.761196302229998E1  -3.999405974298736E-4  -4.728839218945119E1  -5.605450998155573E1  -4.046490179663482E1  
 1.810000000000000E9    -5.526615157766505E1   1.264144764704625E2   8.481668800186985E-2  -4.726200400101508E1   4.690248010203021E-2  -4.761729293080010E1  -4.564212303617595E1   3.180554350861574E1  
 1.820000000000000E9    -6.322869565773622E1   3.962979711694798E1   4.672819435588457E-2  -4.766440987249315E1  -2.937886494262608E-2  -4.770911504999074E1  -4.129152238443758E1   2.382948364911765E1  
 1.830000000000000E9    -5.448865985690483E1  -4.999852621177549E1   5.422318380376512E-2  -4.803980655954076E1  -5.063557775007365E-2  -4.826189822914572E1  -4.492587639693028E1  -8.966781484733976E1  
 1.840000000000000E9    -5.392977889406668E1  -4.079195923498855E1  -2.569451934667263E-2  -4.849532726515113E1   6.328200114339339E-2  -4.789258450187128E1  -4.003211440315342E1   1.785431491410237E2  
 1.850000000000000E9    -5.911514221070279E1  -1.440821742565570E2   2.911262045887905E-2  -4.875781326428985E1   4.050801846537721E-2  -4.860919853078001E1  -4.599496770977001E1   1.180673351044993E2  
 1.860000000000000E9    -6.527405161526248E1   3.523137880727066E1  -7.240145657752424E-3  -4.897740673426512E1  -1.375734439565251E-2  -4.856031537468464E1  -4.623195045552100E1   4.598028893397942E1  
 1.870000000000000E9    -5.948786794597224E1   1.250355698867105E2   5.835956533211089E-2  -4.925193892120379E1  -3.867272587893672E-2  -4.885970507388129E1  -4.003509367548665E1   5.692238287789801E1  
 1.880000000000000E9    -5.441766999296547E1  -1.604608366701808E2   2.440657299167532E-3  -4.946889708932672E1  -4.748820063594725E-2  -4.908169537008411E1  -5.713656646979656E1   6.425638761209164E1  
 1.890000000000000E9    -4.775179395909739E1  -8.022250323368833E1   6.069230611923202E-2  -5.000971899150407E1   4.401542685746921E-2  -4.975676257784294E1  -4.897505149055021E1   1.010495484424383E2  
 1.900000000000000E9    -7.241998356822184E1  -3.725895019515513E1   4.461643028669724E-2  -4.976262357186192E1  -5.370248051194269E-2  -4.977512507290271E1  -5.499348248371637E1  -8.289132825457799E1  
 1.910000000000000E9    -5.504505525409154E1  -1.080990265124152E2   7.312660377129344E-2  -4.990762422861039E1  -2.738792252429862E-2  -5.002684094719807E1  -4.736326828763966E1  -1.760949122985921E2  
 1.920000000000000E9    -6.309800631197561E1   1.549132822868246E2   3.637171386639358E-2  -5.031122418030343E1   4.694334841378180E-2  -5.032060777791988E1  -3.950754215592084E1   1.400955049134552E2  
 1.930000000000000E9    -5.614944478357902E1  -3.468406137019159E1   7.198896023165254E-4  -5.074651088043925E1   4.696428410822253E-3  -5.061753530765142E1  -4.065098798593461E1  -6.525719629354558E1  
 1.940000000000000E9    -5.616248885377167E1   1.604078215678559E2   6.046177772887597E-2  -5.104952895442256E1  -5.741429016750300E-2  -5.064243942184122E1  -4.305801825840936E1  -9.627723664157547E1  
 1.950000000000000E9    -6.396718744124168E1   7.822960349580768E1   4.700617607365860E-2  -5.093296112915590E1  -1.558487392591874E-2  -5.110974227487711E1  -4.900641511087570E1   5.175311410656599E1  
 1.960000000000000E9    -5.644890404585676E1   1.145312391949653E2   1.904110084725898E-2  -5.149480519718438E1  -1.601042084753467E-2  -5.155574078656698E1  -4.154217608451311E1  -2.783117906570787E1  
