#  HZ   S   DB   R     50.00 
! Rohde & Schwarz ZVA40 4Ports - Version 4.11 - 1145.1110k42 SN: 100337
! Date: 2025-12-16 12:52:20
! Measurements: S11 S41 S14 S44 
! 
 1.000000000000000E9    -5.415094540888074E1  -6.149726801518034E1   1.362719997956679E-3  -2.748725803154159E1  -4.303340624922254E-2  -2.645964445262920E1  -3.897839513380659E1  -1.202646493894516E2  
 1.010000000000000E9    -6.469815155045914E1  -9.699119604734531E1   9.321254916301719E-2  -2.639487894583888E1  -3.251111090839077E-2  -2.661644514328406E1  -4.844023206140872E1   1.234113221179013E2  
 1.020000000000000E9    -5.201756710159852E1   1.138410334943818E2  -1.362682810275902E-2  -2.700322616891092E1  -9.108279278126649E-2  -2.699229415341729E1  -4.264195084225314E1  -1.796456410595444E2  
 1.030000000000000E9    -4.948404376604010E1   1.196450960272500E2   4.518691383652992E-2  -2.744463401342165E1   3.353476126604752E-2  -2.746077650267775E1  -4.384900889972127E1  -7.371279111412159E1  
 1.040000000000000E9    -5.771621731545219E1   1.795701128862860E2   6.150474768546521E-2  -2.744174083881496E1  -5.481129527768163E-3  -2.675430122099923E1  -4.116741038596269E1   1.107213725310672E2  
 1.050000000000000E9    -5.703351839173759E1  -7.672140855022212E1  -2.837386813919697E-4  -2.763816166905624E1  -6.046373113017431E-3  -2.749325434408054E1  -4.935362780794530E1  -1.150105744410931E2  
 1.060000000000000E9    -5.024605168339636E1  -8.404213785534090E1   6.054200582250523E-2  -2.856953408326431E1   3.606271069329593E-3  -2.793327142928600E1  -3.407515006528723E1  -1.311730232223240E2  
 1.070000000000000E9    -4.618853319841152E1  -1.684965808168336E2   6.411990625797005E-2  -2.920623430979706E1   4.774611262226156E-2  -2.824545091031321E1  -4.007063530234509E1  -6.769221542118132E1  
 1.080000000000000E9    -5.195960096824379E1   7.578562015944119E1  -2.260171540765890E-2  -2.890423366857511E1  -5.391376330534731E-3  -2.823130039767829E1  -4.308606532829754E1  -2.208758407276985E1  
 1.090000000000000E9    -4.988649189701948E1   1.633751579678910E2   9.467937680965115E-2  -2.843588366628909E1   2.414884496405149E-2  -2.834720586740666E1  -4.014818199120450E1   1.157042858176879E2  
 1.100000000000000E9    -4.670836049767357E1   4.056154439771873E1   1.264905857370255E-1  -2.876903228663779E1   9.177297141712984E-2  -2.928252223927369E1  -3.485723867411662E1   2.921725935310405E1  
 1.110000000000000E9    -5.377374624004527E1  -1.788045778876717E2   4.821785222303377E-2  -2.890264704468801E1  -8.855787585221021E-2  -2.926047259886830E1  -4.286654635136922E1  -7.880659193358008E1  
 1.120000000000000E9    -5.362735853535816E1  -1.134806327669292E2   1.026455309904375E-1  -2.989755378251917E1  -4.201661803160974E-2  -2.927477288964591E1  -3.725723540346387E1  -1.666140207815518E2  
 1.130000000000000E9    -5.238316315372259E1   3.703178068763053E1  -5.434140060849881E-2  -3.006279694248833E1  -5.207154603018580E-2  -2.962942376905598E1  -4.935825385389380E1  -3.866336831355896E1  
 1.140000000000000E9    -5.575754038931810E1   1.271798331897431E1   5.251098252081369E-2  -3.016246383283533E1  -4.758968098112400E-2  -3.007130862064343E1  -3.999371728155606E1   1.667284783309683E2  
 1.150000000000000E9    -5.783642000954225E1   5.725594899441662E1   1.535673817830188E-1  -3.063661470749795E1  -6.431919979736150E-2  -3.003118638202986E1  -4.752900296401736E1   1.169973892073389E2  
 1.160000000000000E9    -6.624010631689292E1  -4.298941107138794E1   5.520436918806013E-2  -3.146306276977521E1  -3.207774446943261E-2  -3.060500232257050E1  -4.267852955623338E1  -1.490598455463556E2  
 1.170000000000000E9    -6.115674406835836E1   1.259042022499982E2   4.855164889806093E-2  -3.083217451984203E1  -5.064953081933545E-2  -3.067552719366914E1  -5.112236676287855E1  -5.721542585434876E1  
 1.180000000000000E9    -6.579424213638933E1  -1.425773765660381E2   9.950636639098148E-3  -3.048990790085746E1  -7.677742669911064E-2  -3.133210426862688E1  -4.269647523187401E1  -5.762194391272832E1  
 1.190000000000000E9    -5.759776130061088E1  -9.344795970052127E1   5.524938509418214E-2  -3.058956793129555E1  -3.656383353273639E-3  -3.154102501615304E1  -3.795481396853820E1  -9.528109248191441  
 1.200000000000000E9    -6.145051561326842E1  -5.090657776048334E1   1.555979300118238E-2  -3.124915286257843E1  -4.984616677176087E-2  -3.122389514988463E1  -4.438524424749599E1  -4.446839789487036E1  
 1.210000000000000E9    -5.842059732145668E1  -7.608633696945250E1   3.041860858771223E-2  -3.120796123404280E1   3.380805372240914E-3  -3.149249341972240E1  -4.485905184816392E1  -1.735665423072668E2  
 1.220000000000000E9    -5.627208909446228E1   1.996081936373198E-1   3.734766035798866E-2  -3.253079989931266E1  -3.741930693580130E-2  -3.152378962228845E1  -3.760764812380605E1   1.653491680588842E2  
 1.230000000000000E9    -6.576602043073989E1   2.812207541095101E1   7.152547352883200E-2  -3.203343103835857E1  -7.066813864469089E-2  -3.222997803254516E1  -4.510952028134866E1  -1.202693249876672E2  
 1.240000000000000E9    -5.289152690246314E1  -8.164637880847832E1   4.528474052679026E-2  -3.291765798659647E1   1.326321760096618E-2  -3.258337452617935E1  -4.079909813536673E1   7.260455787264584E1  
 1.250000000000000E9    -4.723385131613372E1   1.792773343704766E2   8.428393367345721E-2  -3.326587603419139E1  -6.945566993181217E-2  -3.308461042448629E1  -4.821310303814772E1   5.249407636824657E1  
 1.260000000000000E9    -5.235469327133965E1   1.790884650928363E2   2.265363653708283E-2  -3.326333726079952E1   3.509458234022325E-2  -3.300133106015088E1  -4.255255041141643E1  -7.032065943990822  
 1.270000000000000E9    -5.127049556031007E1  -7.292293978392352  -4.172394366105810E-2  -3.335909320133897E1  -2.455567193996644E-2  -3.370085031800904E1  -5.282371629456547E1  -6.098585418756338E1  
 1.280000000000000E9    -4.731725484567809E1  -5.021739206871887E1   1.052364620821296E-2  -3.391717017431393E1  -4.158153145908229E-2  -3.387318963142550E1  -4.575310298732725E1  -1.446345753111707E2  
 1.290000000000000E9    -5.041867541408581E1  -8.432902385741143E1   4.218178225143748E-2  -3.423482758278667E1  -4.961895545430797E-2  -3.398065845401787E1  -4.590064731075553E1  -1.444458409351940E2  
 1.300000000000000E9    -5.471600445847791E1  -1.347458219982374E2   4.695488797979527E-2  -3.441980643668074E1  -2.407258884460446E-2  -3.420782590967197E1  -5.044727722253612E1  -1.656767864792734E2  
 1.310000000000000E9    -5.392091398616513E1  -1.425997697372889E2   7.709825075120798E-2  -3.478278263731463E1   3.820714090232737E-2  -3.387847657350828E1  -4.169527552927173E1   8.222013926251736E1  
 1.320000000000000E9    -5.059945141023380E1   8.272039507871799E1   2.647198034614477E-2  -3.505258438910693E1  -2.700924232527932E-2  -3.485539560343020E1  -4.826348946922846E1  -4.848291854319806E1  
 1.330000000000000E9    -5.166158899810373E1   3.263672727435601E1  -1.127184704122109E-2  -3.582519202470802E1   6.721488652969501E-2  -3.499519560228706E1  -4.018817636007906E1   1.059660993869744E2  
 1.340000000000000E9    -5.777958575332390E1  -1.460994046619816E2   8.135489995635029E-2  -3.519021233654888E1  -7.383701297577053E-2  -3.511682082689333E1  -3.884531585723396E1  -8.728072792630339E1  
 1.350000000000000E9    -5.244046897497385E1  -7.109749808085930E1   7.485135458758012E-2  -3.587374634280891E1   1.874456747231021E-2  -3.513015117285148E1  -4.690236640094656E1   1.248655683964828E2  
 1.360000000000000E9    -5.242964171794661E1  -7.462670218621963E1   8.791366318267936E-2  -3.569663656723592E1  -2.012964431472527E-2  -3.531647513943359E1  -4.007501937715367E1   4.440398344371684E1  
 1.370000000000000E9    -6.122955774739759E1  -2.758741358475648  -2.081617783203161E-2  -3.616054668905348E1  -8.397667035409834E-2  -3.601818574665232E1  -4.128520888533580E1  -4.129311822444745E1  
 1.380000000000000E9    -6.285681434241389E1   1.053705934218673E2   4.862497702941540E-2  -3.642096848218231E1  -5.274406720464230E-2  -3.620259043332422E1  -3.870612962148223E1   1.792903424491518E2  
 1.390000000000000E9    -5.548443604984376E1   7.296100562899139E1   6.528853188909092E-4  -3.679095203247321E1  -1.030205033660153E-2  -3.676649846572732E1  -4.605410940310188E1   5.798474824959551E1  
 1.400000000000000E9    -5.579176337256556E1   6.944498007039971E1   3.041392230912097E-2  -3.678306877323994E1   2.669105036039780E-2  -3.690604105570622E1  -4.214249672721695E1  -2.088773531655601E1  
 1.410000000000000E9    -6.417161807018370E1   1.329804845444089E2   8.822440581876648E-2  -3.656568978344959E1  -5.437146606825846E-2  -3.689578028581494E1  -4.484910529497346E1  -7.531138824632271E1  
 1.420000000000000E9    -5.114852529822274E1  -1.383941809721343E2   2.669320878469246E-3  -3.744815795944628E1  -8.766773535761564E-3  -3.746416324067989E1  -4.886650963952500E1  -1.465756569498358E1  
 1.430000000000000E9    -5.401334211304723E1  -1.125203126729100E2   8.671054929949444E-2  -3.711401491458764E1  -4.121341520769376E-2  -3.747664421829533E1  -4.189848272031371E1  -1.515685107477354E2  
 1.440000000000000E9    -6.946762095516164E1   3.699074633905536E1  -5.494314775808645E-2  -3.752032016453453E1  -9.351410435347634E-3  -3.805095140184570E1  -3.926520623268933E1  -2.786777367083424E1  
 1.450000000000000E9    -5.352020025913937E1   4.869628608740720E1   7.711092752106441E-2  -3.830629880190686E1  -6.432975783782756E-2  -3.807111139629750E1  -4.601801190641768E1  -1.372627950999417E2  
 1.460000000000000E9    -5.082766947605244E1   3.133220336209402E1   1.960837228977763E-2  -3.866588482350352E1   4.034852275426639E-2  -3.826221477330275E1  -4.915215129494631E1   1.470713434333631E2  
 1.470000000000000E9    -4.877679446283178E1   3.431157716700987E1   4.439015956263423E-2  -3.801613383650278E1   4.261646931223629E-2  -3.850946175124192E1  -3.764317187056248E1   7.590518685742831E1  
 1.480000000000000E9    -4.881333429613498E1   1.608999644652408E2   5.879570629573868E-2  -3.908982949406376E1  -1.005715650950743E-1  -3.917820310266065E1  -4.051262034345629E1  -7.264520883846846E1  
 1.490000000000000E9    -5.081503951039102E1   1.584564516205934E2   5.812651475677467E-2  -3.939234092920358E1  -3.006042568248785E-2  -3.910068664694548E1  -4.822212870549040E1   1.928629955130386E1  
 1.500000000000000E9    -5.967589911819551E1  -6.448111447686937E1   1.156519880755636E-3  -3.929388133856417E1  -7.653145038733725E-2  -3.930376684849093E1  -5.522496553414526E1  -1.237450687877281E2  
 1.510000000000000E9    -4.813530583440424E1  -1.784296649209723E1  -4.440485078289839E-2  -4.029602519569719E1  -3.893014080895490E-2  -3.990483009829366E1  -3.220422512695883E1   9.329585262757430  
 1.520000000000000E9    -6.152717453608479E1   1.384274083917943E2   3.537102292341332E-2  -3.991983051018357E1  -4.321481494718742E-2  -3.969734072718347E1  -4.238455467463028E1  -6.537987129177137E1  
 1.530000000000000E9    -5.331304714232294E1  -9.991012937986614E1   8.670522449394796E-2  -4.063329122494365E1  -2.706519846610114E-2  -4.032910524324714E1  -4.806453552933599E1  -2.443861099974030E1  
 1.540000000000000E9    -5.390367155521619E1   1.732984934459152E2  -7.922981639524946E-4  -4.032416411806791E1   8.258245496034482E-2  -4.107300483553377E1  -3.962734984871670E1   6.026778953512346E1  
 1.550000000000000E9    -5.498172799094617E1   7.952932134270145E1   1.025434998226438E-2  -4.094798910210727E1  -3.390659114259853E-2  -4.077867141824633E1  -3.945073083583285E1   7.194985013441846E1  
 1.560000000000000E9    -4.795618253691902E1   1.168247361225192E2   1.355951975355217E-1  -4.106842887065153E1   1.128935838903538E-2  -4.094380404288670E1  -3.958725558968794E1   1.634573613390630E2  
 1.570000000000000E9    -5.371825389086605E1   9.300912731798093E1   9.643184925112157E-2  -4.153702521647560E1  -2.360128562664733E-2  -4.102523773311530E1  -4.180718033628239E1   3.115778195704818E1  
 1.580000000000000E9    -6.984538444285602E1   1.204251555476780E2   4.370747567868299E-2  -4.165328407800732E1  -1.204789792993601E-2  -4.171307151707833E1  -4.276231280066156E1   8.243259345828180E1  
 1.590000000000000E9    -5.406926213285867E1  -2.632507710633022E1   5.503933633963971E-2  -4.162990643712488E1   2.081354618175669E-2  -4.136008817800803E1  -4.069086874930724E1  -1.760869430626493E2  
 1.600000000000000E9    -5.523760249798222E1  -8.968299184894562  -5.577102116411169E-2  -4.211713625949726E1  -4.923698941778067E-2  -4.197815753680458E1  -4.139835100562390E1  -3.608747489795216E1  
 1.610000000000000E9    -6.616893744120503E1  -9.377049109431268E1   2.636710214789661E-2  -4.204540148431595E1  -1.934721927436222E-3  -4.221084384139413E1  -4.250701772551604E1  -1.303886671941872E2  
 1.620000000000000E9    -5.493346530480287E1   1.126491573727240E2   6.924473719716734E-2  -4.323034515560534E1  -8.569752471161778E-3  -4.203698033994795E1  -4.361122395073428E1  -1.033971325528460E2  
 1.630000000000000E9    -4.982942051010686E1   9.536580365693298E1   4.961735959167370E-2  -4.310617204117644E1   4.699321641733035E-2  -4.267357595090349E1  -4.107749569170064E1   1.357139305992272E2  
 1.640000000000000E9    -5.593619264282382E1   7.991259800207756E1   4.835294412552516E-2  -4.294151170867865E1  -6.732332772563125E-2  -4.286055456285803E1  -4.195589415063768E1  -1.278058662610549E2  
 1.650000000000000E9    -5.746456682038765E1   3.423629084739789   3.677915230752763E-2  -4.347809962349775E1   3.163045515040740E-2  -4.317172516490985E1  -4.407585958810824E1  -6.025939268730510E1  
 1.660000000000000E9    -5.317708906339945E1  -7.581852172796300E1   5.065678318384908E-2  -4.357711200513706E1   4.373096890796499E-2  -4.342648427702075E1  -4.407017024073536E1   4.864256550843807E1  
 1.670000000000000E9    -5.341026298630095E1  -9.797757967306637E1  -9.310438531555149E-4  -4.362942823886706E1   4.653163548945394E-2  -4.356086414395440E1  -4.419107049175999E1  -1.696968976020383E2  
 1.680000000000000E9    -6.473062677370271E1   5.511762078437542E1   2.849571384205045E-2  -4.416402527107265E1  -2.326722061540570E-2  -4.384916169846051E1  -3.934333531861950E1  -1.659729169908613E2  
 1.690000000000000E9    -5.728403157469528E1   1.339792787231193E1  -1.265143684369709E-2  -4.426476560922045E1  -1.608634611972281E-2  -4.442992061794887E1  -5.272181796111610E1   7.793794713857075E1  
 1.700000000000000E9    -5.530025388116746E1   1.292641367302178E1   3.252670995610991E-2  -4.505418607636447E1  -1.746769361161236E-2  -4.435074973929257E1  -4.861326452723908E1  -8.077063255907819E1  
 1.710000000000000E9    -7.358955787008749E1  -2.228610873055527E1  -1.370754457038670E-2  -4.497583284351937E1   2.606028993411432E-2  -4.502442753224757E1  -4.380667436303457E1   7.619288002947607E1  
 1.720000000000000E9    -5.339206291932859E1  -7.669551862833001E1   6.387834370938136E-2  -4.510229330910460E1   2.288133918134126E-2  -4.483556297319298E1  -4.648536102456666E1   1.712190139431149E2  
 1.730000000000000E9    -5.967813341006499E1  -9.128238491975394E1   2.468941670495026E-2  -4.570466318015247E1  -3.432863284444884E-2  -4.490627025246712E1  -4.853917891180628E1  -9.398910034865509E1  
 1.740000000000000E9    -5.343755539114989E1  -1.429238070072893E2   4.811728759728143E-2  -4.544801806014971E1  -2.895371143640760E-2  -4.546281762941942E1  -4.979313145218876E1   1.238122710140248E2  
 1.750000000000000E9    -5.825514821715497E1  -1.041783314065045E2   1.647628771005710E-2  -4.621856997040938E1  -4.989209628369853E-2  -4.573513156494323E1  -5.121400778652623E1   5.105751196177986E1  
 1.760000000000000E9    -5.461551221090628E1   3.673384671202165E1   5.450719117883587E-2  -4.632079397790751E1  -7.869272605597312E-3  -4.586817312934280E1  -4.505185848182896E1  -1.743147068288655E2  
 1.770000000000000E9    -6.171079453554768E1   3.147203947428958   6.285805059335702E-2  -4.688434567996746E1  -1.054282601626168E-2  -4.643535981804093E1  -4.547587145958489E1   3.505886357438247E1  
 1.780000000000000E9    -5.451911829211520E1  -1.523118113237318E1   1.868572637152587E-2  -4.658178487719946E1  -9.725511813716985E-3  -4.662666819626242E1  -4.088541437239252E1  -1.053220349226037E2  
 1.790000000000000E9    -6.033187309845586E1  -1.631433325053513E2   7.383363991611000E-2  -4.694889729590883E1   2.951561542048481E-2  -4.675936038196983E1  -4.002842344737809E1   1.325874264396230E2  
 1.800000000000000E9    -6.049206313239697E1   1.601562713646551E2   3.475500738310939E-2  -4.777419476275479E1   6.804184637339129E-3  -4.708006852219570E1  -4.018184807386071E1  -1.679320708629232E2  
 1.810000000000000E9    -5.612717797081392E1   1.306692195190156E2   8.114062489173630E-2  -4.735127907031443E1   1.602807270526577E-2  -4.743575470021199E1  -5.084021295432118E1   1.244165185225598E2  
 1.820000000000000E9    -6.333360640483194E1   2.217632439437498E1   4.446257878684424E-2  -4.754705869550971E1  -2.530688107407480E-2  -4.780976633091075E1  -5.217970825814865E1  -8.430536296951415E1  
 1.830000000000000E9    -5.292481393738360E1  -3.442963449227497E1   4.027425095001530E-2  -4.800611707674322E1   1.845118249756951E-2  -4.817750151082007E1  -5.022349470652116E1   1.056122451385738E1  
 1.840000000000000E9    -5.683336751133344E1  -6.723972987754770E1  -3.370718503757787E-2  -4.859555446919724E1   2.075060215176102E-2  -4.819823731141607E1  -4.305578386649923E1   1.373730191562595E2  
 1.850000000000000E9    -5.919877496583928E1   1.583659948741462E2   4.409990991726202E-2  -4.877551912672836E1  -1.373143380282929E-2  -4.899168822193560E1  -4.949242601272204E1  -5.674524631773107E1  
 1.860000000000000E9    -5.826135437364484E1   8.130643094945464E1   7.989949979150330E-3  -4.893004575456627E1  -8.216673755070052E-3  -4.884329678695652E1  -4.897619109731590E1   1.264308196925984E2  
 1.870000000000000E9    -5.200418205466815E1   1.220593141984188E2   6.757454585128703E-2  -4.923669641661039E1   2.163276979017750E-2  -4.868770091177997E1  -3.940886997801426E1   1.197091535245363E2  
 1.880000000000000E9    -6.336452230237040E1  -1.356368052375403E2  -1.407507995391487E-3  -4.943987039671426E1   1.043187967934055E-2  -4.931525611869695E1  -4.410235684467805E1  -1.582737815058662E2  
 1.890000000000000E9    -4.927515084520544E1  -8.665052976321644E1   4.608552073079179E-2  -5.011908350241802E1   2.594417153310568E-2  -4.967761811774181E1  -4.435242818254443E1   1.776027694469995E2  
 1.900000000000000E9    -6.620852614826596E1  -9.905129959379555E1   4.108913867987502E-2  -4.955503010601906E1  -3.610487949854304E-2  -4.987644729052268E1  -3.867604151475163E1   6.913625849369127E1  
 1.910000000000000E9    -5.552746893568519E1  -1.091442667279219E2   6.624768900550114E-2  -4.994750654953713E1  -2.633228031356569E-2  -5.006239345354835E1  -4.794530443263624E1  -1.636065733804519E2  
 1.920000000000000E9    -6.767183940514211E1   8.054335770863050E1   3.832541227850869E-2  -5.034634722829407E1   1.729596591667860E-2  -5.038359263595518E1  -4.255141552516723E1   1.465617571741935E2  
 1.930000000000000E9    -5.440112849059507E1  -9.659032164884796E1   3.203749944101620E-3  -5.070257153166077E1  -4.003538966829097E-2  -5.058204254583948E1  -4.780866166390900E1  -6.772959375731281E1  
 1.940000000000000E9    -6.230033365696460E1   2.664738344070707E1   4.758122704362715E-2  -5.109239903664196E1   7.559504457892548E-3  -5.062272810120802E1  -5.321406087972484E1  -1.068736758455555E2  
 1.950000000000000E9    -6.138610618956695E1   3.337716994661687E1   3.955210040025836E-2  -5.087362241225510E1  -8.728757139394233E-4  -5.107642097227748E1  -5.106669960273882E1   1.479469255293080E2  
 1.960000000000000E9    -6.371533106090827E1   7.172958935164373E1   2.651346947811595E-2  -5.147884280773901E1  -3.242789428019310E-2  -5.126640163976292E1  -4.444879222747846E1  -2.587151509721435E1  
