#  HZ   S   DB   R     50.00 
! Rohde & Schwarz ZVA40 4Ports - Version 4.11 - 1145.1110k42 SN: 100337
! Date: 2025-12-16 12:52:32
! Measurements: S11 S41 S14 S44 
! 
 1.000000000000000E9    -5.578895061254389E1  -2.308182853625557E1   5.470384259906923E-2  -2.699692405245590E1   3.127376374580640E-4  -2.630507132827239E1  -4.528599561530722E1  -9.728482148269677E1  
 1.010000000000000E9    -5.447923570729358E1  -4.058644740934037E1   7.931827244595559E-2  -2.625414871572924E1   9.002207552508069E-2  -2.627202025417608E1  -3.838244655167794E1   7.750235589971470E1  
 1.020000000000000E9    -5.426258370518156E1   9.019957290769331E1  -1.033059838446988E-2  -2.708768603020392E1  -9.706576270475992E-2  -2.650543578487504E1  -3.936968727162989E1   1.234443302184202E2  
 1.030000000000000E9    -5.322517269981477E1   1.329262719600008E2   6.583840408349670E-2  -2.755449608871661E1   1.045425989956873E-3  -2.703470775503638E1  -4.250447171493162E1  -1.284047135693192E1  
 1.040000000000000E9    -5.426847293849425E1   6.515364337424144E1   5.531926115809426E-2  -2.745613455830959E1   5.117973363111299E-2  -2.736565769403758E1  -4.914742146815867E1  -1.115390287176083E2  
 1.050000000000000E9    -5.435248840794595E1  -7.438320047111618E1   1.808196692491029E-2  -2.764713548668023E1  -2.754698795077885E-2  -2.767559798160848E1  -4.049999227031186E1  -1.275551604584389E2  
 1.060000000000000E9    -5.435693828606522E1  -9.831026567550994E1   5.316057802887005E-2  -2.832889924110817E1  -3.304816537955211E-2  -2.792592082419183E1  -3.820231051370669E1  -1.293876489174549E2  
 1.070000000000000E9    -4.740992113815497E1  -1.792878073611708E2   7.299315313951323E-2  -2.906219722530825E1   7.290861237727023E-3  -2.828833362374963E1  -4.604097978197358E1  -3.329024744534976E1  
 1.080000000000000E9    -5.148092847822633E1   7.180092872744658E1  -1.537795622108252E-2  -2.887651256658601E1  -1.177916754660570E-2  -2.830486620680637E1  -4.554588340019966E1   1.293579469811346  
 1.090000000000000E9    -4.844740963190044E1   1.499390479097221E2   8.908138386520306E-2  -2.839897410923458E1   4.976152234176554E-2  -2.842857767996882E1  -4.334563603072390E1   3.103065873596545E1  
 1.100000000000000E9    -4.622255067127907E1   4.632972284303166E1   1.533542576239515E-1  -2.887602865290130E1   1.016798257433949E-1  -2.901459627653983E1  -3.598214422252006E1  -9.576470393348892  
 1.110000000000000E9    -5.194629015033210E1   1.114274992397536E2   3.084840284216274E-2  -2.879101489017568E1  -5.212291330986477E-2  -2.845485768406516E1  -4.232506774194423E1   6.854317399059556E1  
 1.120000000000000E9    -5.289516305128448E1  -1.300415762943807E2   1.165809655298273E-1  -2.989782519560974E1  -6.415274746695501E-2  -2.942855524398826E1  -3.954011118959675E1  -1.768137493014920E2  
 1.130000000000000E9    -5.288511979470656E1   3.547994423160976E1  -5.747927306384952E-2  -2.998821388848623E1  -3.405158897634490E-2  -2.978019632370516E1  -4.529823122144195E1  -2.658957317521645E1  
 1.140000000000000E9    -5.124840186745700E1   1.483580420258012E1   5.643315527421294E-2  -3.015401723203655E1  -9.875882390008281E-2  -3.048006862873825E1  -3.544172358865479E1  -1.624687990052169E2  
 1.150000000000000E9    -5.467385290936957E1   6.106246311479094E1   1.307666301798161E-1  -3.058111191219929E1   2.180698938565521E-3  -3.016141071625422E1  -3.989223070952797E1   3.784806517646839E1  
 1.160000000000000E9    -6.529962426235382E1  -4.993725443635557E1   5.405178482127047E-2  -3.142719720173846E1  -2.677137731719342E-2  -3.074966049109743E1  -4.235578843227826E1  -2.788241013782086E1  
 1.170000000000000E9    -6.598660735940551E1   9.292728103468363E1   4.251533777200595E-2  -3.087745073920099E1   3.726889743053750E-2  -3.060072805033659E1  -3.847385309808279E1   7.962303715154262E1  
 1.180000000000000E9    -6.636146669282589E1  -1.045246971615622E2   3.605850623252735E-2  -3.056199087309152E1  -4.130608980981963E-2  -3.114848704507022E1  -3.985727391838371E1  -4.992731477069128E1  
 1.190000000000000E9    -6.007568688055287E1  -7.481088081378121E1   6.127595298297420E-2  -3.059357981682823E1  -4.364022858680896E-2  -3.102265584175370E1  -4.179329372659777E1  -1.611716784613685E1  
 1.200000000000000E9    -6.175235080729869E1  -6.903977792786898E1   1.459596675499503E-2  -3.121876748913216E1  -3.740431766886077E-2  -3.133385764945419E1  -3.786297323051009E1  -1.158973323327413E2  
 1.210000000000000E9    -6.124781479908896E1  -6.631871683365375E1   2.715322975385978E-2  -3.128038082136663E1  -4.613221932054774E-3  -3.164240212067571E1  -4.427480122907875E1  -1.638792665061004E2  
 1.220000000000000E9    -5.510020701874588E1   1.871255814135259E1   5.143487139206021E-2  -3.240532124895046E1  -3.250853715910747E-2  -3.171204443458147E1  -3.988214126692787E1  -1.771322844652982E2  
 1.230000000000000E9    -5.854895989413004E1   8.307307002786423E1   5.216691207515639E-2  -3.214098697999163E1  -3.961605884229693E-2  -3.190800203732890E1  -4.316169319446266E1   1.222842806881558E2  
 1.240000000000000E9    -5.631276369516181E1  -5.535772305197028E1   3.769461132016216E-2  -3.296650684544532E1   2.617547613110228E-2  -3.225010946877818E1  -4.157558177199573E1   1.264631375717229E2  
 1.250000000000000E9    -4.640407411734165E1   1.754573661150842E2   4.683272655298192E-2  -3.345950420009485E1  -5.940911492608193E-2  -3.311972370259601E1  -4.319846146128112E1  -1.064154551545941E2  
 1.260000000000000E9    -5.184400807261915E1   1.491475317930405E2   3.166298681131715E-2  -3.330341922052617E1  -1.572971132088436E-2  -3.322790954964649E1  -4.063181774259867E1  -4.149202601274213E1  
 1.270000000000000E9    -4.922577375630205E1  -2.055040155693019E1  -4.041789150836653E-2  -3.339172510320334E1  -6.233972299717878E-2  -3.352591646148183E1  -4.168135874299244E1  -5.595562204425515E1  
 1.280000000000000E9    -4.731628767708508E1  -5.570221116879202E1  -1.119146551988589E-2  -3.389831816772604E1  -3.627686488023602E-2  -3.382317126860819E1  -5.033283184872736E1  -1.379036396174712E2  
 1.290000000000000E9    -5.194965669238557E1  -9.204329049863092E1   2.991439008974010E-2  -3.415627397839786E1  -5.230335212813240E-2  -3.393334301131792E1  -4.371094439351511E1  -1.514336836402013E2  
 1.300000000000000E9    -5.997435337821803E1  -1.119646684058907E2   4.819350114745293E-2  -3.425053873238832E1  -3.315585401673233E-2  -3.408139103597031E1  -4.223129930462943E1   1.444362312923414E2  
 1.310000000000000E9    -5.680782088532747E1   9.397631110392113E1   5.935572075885278E-2  -3.477476054978608E1  -7.898823990043147E-2  -3.402995200848135E1  -4.494551019785471E1   1.605718181771324E2  
 1.320000000000000E9    -5.008985168784464E1   9.795442577793540E1   3.481848660214056E-2  -3.512544312698201E1  -3.657075979634067E-3  -3.478976442329397E1  -4.249848274777261E1  -2.744545807955568E1  
 1.330000000000000E9    -5.501616818537420E1  -3.545347715796793E1   7.951669008923887E-3  -3.553810099982228E1  -4.446885693744344E-2  -3.484577685354898E1  -3.816198265077674E1  -1.429058391347423E2  
 1.340000000000000E9    -5.385593909482021E1   1.371420135480515E2   5.619154996589528E-2  -3.510852390593571E1  -3.997325284834973E-2  -3.457683519102789E1  -4.376852486549147E1  -1.764179032982606E2  
 1.350000000000000E9    -5.095729539145042E1  -9.761442589431483E1   5.429591473068911E-2  -3.590731466318997E1   9.838088962662779E-3  -3.551920503329673E1  -4.286834636073750E1   1.314739268424287E2  
 1.360000000000000E9    -5.260679708981601E1  -6.827414211583519E1   5.708389086623375E-2  -3.565501664868442E1   4.061141380288846E-3  -3.528267740311398E1  -3.745323007684281E1   3.530251952147189E1  
 1.370000000000000E9    -6.167030970945641E1  -4.095774908448847   8.567305740837109E-3  -3.610744678425974E1  -1.011179352529049E-1  -3.605153451432712E1  -4.690499348309783E1  -1.519162455885470E2  
 1.380000000000000E9    -5.986697390657125E1   1.164020553228187E2   3.586963597133703E-2  -3.646841340852404E1  -7.900362808074093E-3  -3.628058987278196E1  -4.737262888778559E1  -7.671228535801450E1  
 1.390000000000000E9    -5.539979421822176E1   7.840358993350476E1   1.435358457236879E-2  -3.681205621935813E1  -7.990373559104272E-3  -3.660340745849536E1  -4.750972820472174E1   1.787056420025619E1  
 1.400000000000000E9    -5.693463612626763E1   8.346602552954099E1   3.787309670988710E-2  -3.671848767358264E1  -5.806214192633143E-3  -3.682157044428098E1  -4.154177124219908E1   7.301597074685820E1  
 1.410000000000000E9    -6.001414536414841E1   6.753123530979494E1   9.911656412244907E-2  -3.649116546276186E1   4.729173587375729E-3  -3.691634086628169E1  -4.134414130508938E1   8.395814764149132E1  
 1.420000000000000E9    -5.136292443024603E1  -1.238222963293764E2   1.963503936653353E-3  -3.750957609195464E1   3.727560780203382E-2  -3.732458403137205E1  -4.932479850014384E1  -1.030100076582265E2  
 1.430000000000000E9    -5.190247990392619E1  -1.091813224346739E2   9.872892194227032E-2  -3.708876740157042E1  -1.911341694858116E-2  -3.741510698792339E1  -4.347995625722611E1   1.763419258828257E2  
 1.440000000000000E9    -6.357147174653333E1   1.298577888367966E2  -5.505217801542485E-2  -3.750399215176975E1   2.759405056704273E-2  -3.818222687922700E1  -4.015743569403601E1  -9.566066351854163  
 1.450000000000000E9    -5.072894764008562E1   5.494271306447537E1   6.321685442599928E-2  -3.844393060370162E1  -5.028588048030430E-2  -3.826518662666220E1  -3.879975579612622E1  -6.939298685212777  
 1.460000000000000E9    -4.780164200147484E1   3.783015118076479E1   2.712680217218927E-3  -3.863064161838711E1   9.457427700036047E-2  -3.831305124229146E1  -3.782114491312001E1   4.054653085811966E1  
 1.470000000000000E9    -4.817328735679701E1   5.960037791233753E1   6.278565518783806E-2  -3.804146947455355E1  -2.905630797429941E-2  -3.821710351576660E1  -3.656818693529068E1   1.038462017267594E2  
 1.480000000000000E9    -5.055428888478249E1   1.608160818474139E2   7.011035453906699E-2  -3.886660467426421E1  -1.064941270296859E-1  -3.908305917597445E1  -5.045781737080971E1   7.998633265274636E1  
 1.490000000000000E9    -5.335038303856886E1   1.759927299907309E2   4.666258129182475E-2  -3.911024449071041E1  -2.797286663793326E-2  -3.906856880412386E1  -4.906411282686393E1   1.510868831480109E2  
 1.500000000000000E9    -5.956099106732398E1  -7.424018458079624E1  -1.971298154095645E-2  -3.933981981760207E1  -5.718137098065561E-2  -3.927297164002349E1  -5.054525660384974E1  -4.046871471471415E1  
 1.510000000000000E9    -4.793772902330384E1   6.734024826304843  -3.461647019031562E-2  -4.042974331929444E1   1.787232710236647E-2  -3.991260222801164E1  -3.379729338920527E1   2.170792904474399E1  
 1.520000000000000E9    -5.078567518767049E1   1.221461342903136E2   1.438316701057715E-2  -3.988116624545854E1  -4.745328802330050E-2  -3.923736201585233E1  -4.756321171562875E1  -1.132381037297102E2  
 1.530000000000000E9    -6.280536300157840E1  -1.761539449520789E1   9.622744891228763E-2  -4.074821646929522E1  -6.559988242914309E-2  -3.981225810826874E1  -3.921378482616372E1  -7.977227595413380E1  
 1.540000000000000E9    -6.386023121782033E1   1.427007348526153E2  -1.394331174798658E-2  -4.024069213892862E1   4.142608517922811E-2  -4.079664650467552E1  -6.385221653842443E1  -9.063655603153286E1  
 1.550000000000000E9    -5.682516171791035E1   7.967916339599846E1   3.125227487962152E-3  -4.083250207209388E1  -3.502403311145406E-2  -4.075643350505793E1  -4.647068873108702E1  -5.995782521284778E1  
 1.560000000000000E9    -4.675824783373889E1   1.064053202914662E2   1.134339360624004E-1  -4.116135936110674E1   6.648666006279955E-2  -4.120223288834043E1  -3.832207331105287E1   1.063260848968242E2  
 1.570000000000000E9    -5.533171810914747E1   1.126744472628479E2   1.111138802349436E-1  -4.153246231812977E1  -7.716424233324713E-2  -4.111869922927917E1  -4.731387682569887E1  -8.242651900664467E1  
 1.580000000000000E9    -7.099551695594225E1  -9.282569641545037E1   5.525686463413788E-2  -4.168924945367672E1   9.245359514829604E-3  -4.192355629184167E1  -3.852103472729780E1   3.774637971311184E1  
 1.590000000000000E9    -5.594146142124642E1  -4.443468532999753E1   6.243858503230089E-2  -4.165459367605873E1   3.832287224862361E-2  -4.181708469915078E1  -4.487129488247059E1   5.019364841262766E1  
 1.600000000000000E9    -5.468677399419585E1  -9.695247235874662  -5.659476756615757E-2  -4.204972448882326E1  -5.263118780048865E-2  -4.203903441593882E1  -3.620530181011279E1   6.795317009989806E-1  
 1.610000000000000E9    -6.072234523643331E1  -1.213081360012800E2   4.276905121650936E-2  -4.197660829903425E1   7.139552061820596E-2  -4.177968220098343E1  -3.761131289240048E1   1.594630837065965E2  
 1.620000000000000E9    -5.427533317763150E1   1.095117683422714E2   8.729647532488298E-2  -4.323956936905792E1  -1.051743141247950E-2  -4.202118390379337E1  -4.476108738201145E1   1.484706858658929E2  
 1.630000000000000E9    -4.990861005256138E1   9.929201684208111E1   4.525003830877025E-2  -4.316192170792861E1   6.154638898107428E-2  -4.241966401417384E1  -4.201876183376715E1  -1.670796105053062E2  
 1.640000000000000E9    -5.582439532905904E1   6.894840943340148E1   5.318217777951594E-2  -4.312572351610167E1  -6.232352327242419E-2  -4.286593125731600E1  -4.220906072779055E1  -1.387462478296876E2  
 1.650000000000000E9    -6.003209563815700E1   4.140408616504566   3.719371497545843E-2  -4.331068467334153E1   7.872119401703806E-3  -4.330526751252821E1  -3.651213767550740E1  -5.625347549216573E1  
 1.660000000000000E9    -5.953415656753402E1  -6.686107552451168E1   4.575157473386170E-2  -4.350305952135187E1  -1.303079997077068E-2  -4.340658678095210E1  -4.914518598390228E1   4.449343394430207E-1  
 1.670000000000000E9    -5.172971688966915E1  -7.949612358194926E1  -1.048094565825924E-3  -4.350433702854680E1   3.294662479010858E-2  -4.336883452409607E1  -4.108499178957428E1   1.767437068752521E2  
 1.680000000000000E9    -7.007177411573653E1  -7.943505598992550E1   2.054826702083120E-2  -4.405584793887029E1  -1.947756094686474E-2  -4.385879480583498E1  -5.258753301191566E1  -1.083435933711661E2  
 1.690000000000000E9    -5.310180446882001E1  -1.049215350888565E-1  -3.542471895716781E-2  -4.428838402174068E1  -2.560663147139159E-2  -4.461330836981299E1  -4.657275279105151E1  -2.387428998697832E1  
 1.700000000000000E9    -5.875354372952979E1  -1.985763608184966E1   2.135851650313727E-2  -4.503927962064687E1  -5.669824509480945E-2  -4.449471452967717E1  -5.381913460231722E1   5.961975800171844E1  
 1.710000000000000E9    -5.686172269836551E1   1.003207124215540E2  -3.014476823592257E-2  -4.499757919133377E1  -6.422037863213894E-3  -4.478346767905114E1  -4.653354783086171E1   2.544672798909287E-2  
 1.720000000000000E9    -5.453164436577892E1  -9.719102958797798E1   5.254325099714582E-2  -4.517449289037858E1   3.314707051653976E-2  -4.498651880111662E1  -4.505999401135047E1  -1.529639214998910E2  
 1.730000000000000E9    -6.535296886312607E1   4.458826224452806   1.660180343660479E-2  -4.572281200929086E1  -4.051977969819849E-2  -4.524073812112574E1  -4.212865437743552E1  -3.512466290499553E1  
 1.740000000000000E9    -5.666334769555527E1  -1.100880603296701E2   3.344612861093536E-2  -4.550076851715431E1  -5.488065126961193E-2  -4.563584530021890E1  -4.187760764807061E1  -5.000137565074297E1  
 1.750000000000000E9    -5.784007753801266E1  -4.252504391739475E1   1.694953079644845E-2  -4.621094370646089E1  -9.189736583842196E-3  -4.604999290072067E1  -4.882651462870343E1   8.486847020334139E1  
 1.760000000000000E9    -5.363622552300249E1   1.457553993391626E1   5.303217460091517E-2  -4.631973871763846E1   1.948124014369250E-2  -4.598339545839475E1  -4.060989714039550E1   1.065456745130159E2  
 1.770000000000000E9    -5.632258394691717E1  -9.708801585047082   6.056393429958153E-2  -4.686190113281222E1   1.494756661172845E-2  -4.618168073752970E1  -4.271484000768997E1   3.436713353024300E1  
 1.780000000000000E9    -5.670988313972332E1  -4.102871682285674E1   3.577992614500148E-2  -4.652389426152548E1   4.036901630462212E-2  -4.654697307244490E1  -4.122717544989901E1  -1.666292317450821E2  
 1.790000000000000E9    -6.097527505728377E1  -1.227191882315884E2   5.556266763330879E-2  -4.692672583757057E1  -1.677875400499191E-2  -4.667217156126529E1  -5.162104107539635E1  -1.687554966475528E2  
 1.800000000000000E9    -5.940351693340067E1   1.674894511369849E2   1.623837302266908E-2  -4.760087343105548E1   1.376896599097543E-2  -4.713255709572209E1  -4.317841195118123E1  -7.833755141294824E1  
 1.810000000000000E9    -5.708030472183783E1   1.315635214276686E2   8.943897290197679E-2  -4.741146795398937E1   3.829165879307534E-3  -4.753774044880498E1  -5.033692165645542E1  -1.731602728872786E2  
 1.820000000000000E9    -5.940687146034017E1   4.677942305780289E1   6.510208259479290E-2  -4.768659437623464E1   2.335085307684811E-2  -4.756877198671817E1  -5.494908900849212E1   1.327242964591588E2  
 1.830000000000000E9    -5.426194594540159E1  -3.963420386882370E1   4.109661967297879E-2  -4.814581063961369E1  -1.686275732346903E-2  -4.806639502812783E1  -4.620243805019440E1  -3.079620062136290E1  
 1.840000000000000E9    -5.679008426889440E1  -5.688139634750045E1  -2.183226896107442E-2  -4.859225607219529E1   2.465188954133460E-2  -4.803662380324593E1  -4.780358813788480E1  -1.777787728197942E2  
 1.850000000000000E9    -6.422086174899943E1   1.240686290570519E2   4.248664511331862E-2  -4.874056997468869E1  -4.429638456247900E-2  -4.882886658808441E1  -4.561015502182320E1   5.389766272795912E1  
 1.860000000000000E9    -5.624874991281913E1   8.416287723089573E1  -8.354381829665865E-4  -4.887580062269939E1   1.598200210651070E-3  -4.898478096170472E1  -5.783147827318287E1  -3.256520736154808E1  
 1.870000000000000E9    -5.406554849676918E1   6.575221204607887E1   6.154369074651039E-2  -4.932202488195544E1  -1.241169249296055E-2  -4.911181576696922E1  -5.043160224756439E1   7.678204499798548E1  
 1.880000000000000E9    -6.150888438453067E1  -1.692987705523692E2   1.827761902861531E-2  -4.954192451250297E1  -5.896366309563418E-3  -4.908744174820816E1  -4.306993629752364E1  -1.399974900281432E2  
 1.890000000000000E9    -4.751776068568307E1  -6.572802007435236E1   4.995333443765396E-2  -5.011069722391040E1   8.232475188632676E-2  -4.957126556730003E1  -5.028112875285090E1   1.634448701727087E2  
 1.900000000000000E9    -6.781148844234498E1  -8.442778687362879E1   4.985748039799336E-2  -4.982493863520864E1  -4.812738471331013E-2  -4.974382540605080E1  -4.860634083845125E1  -6.346357935433004E1  
 1.910000000000000E9    -5.869450394921872E1  -1.133017988953289E2   7.516172785882838E-2  -4.998854078089826E1  -3.069969881310060E-2  -5.012056682537728E1  -4.835999333537115E1   9.422191522805508E1  
 1.920000000000000E9    -6.706301728330817E1   6.266349177365918E1   3.749629299298410E-2  -5.036525880104026E1   3.193898005328013E-2  -5.039355286342521E1  -4.152566510353400E1   1.196748182030293E2  
 1.930000000000000E9    -5.617021180758677E1  -1.252163781404184E2   1.017021998883631E-2  -5.056799339367944E1  -2.967342196531051E-2  -5.041922311025567E1  -3.813110565004857E1  -9.539518968146646E1  
 1.940000000000000E9    -6.412423916534645E1  -9.996849741070027E1   6.133331816065596E-2  -5.101956088236609E1  -1.128017292953037E-2  -5.083041966817136E1  -3.922486265771188E1  -6.636608359792682E1  
 1.950000000000000E9    -5.602855524759379E1  -3.472230878397168E1   4.247119471700704E-2  -5.096479302747654E1   4.736265285615964E-2  -5.095760499820185E1  -4.921586107017135E1   1.445108273724416E2  
 1.960000000000000E9    -5.910387524458357E1   1.709346147860342E2   1.498929843119872E-2  -5.145923380622418E1   2.074281855249218E-2  -5.126948255254048E1  -4.731693009847025E1   9.543448365227690E1  
