#  HZ   S   DB   R     50.00 
! Rohde & Schwarz ZVA40 4Ports - Version 4.11 - 1145.1110k42 SN: 100337
! Date: 2025-12-16 12:52:55
! Measurements: S11 S41 S14 S44 
! 
 1.000000000000000E9    -5.607835211348005E1  -1.555414213107439E1   1.155959938068998E-1  -2.656151706122671E1  -5.265530071776280E-2  -2.660085771755522E1  -4.138618420309742E1  -1.354065566383592E2  
 1.010000000000000E9    -6.010845348026281E1  -7.831028046211554E1   8.097080180812213E-2  -2.641758073133695E1   1.741215790581715E-2  -2.659943296776265E1  -4.613216225548030E1   6.650208205147823E1  
 1.020000000000000E9    -5.208183605018787E1   1.066482386827853E2  -9.210816729544312E-3  -2.705494484662772E1  -1.060106206831546E-1  -2.680075048855570E1  -3.643234229612231E1   1.622692216828091E2  
 1.030000000000000E9    -5.477858327024236E1   1.403235123041889E2   5.055539508124772E-2  -2.742262374174483E1   8.386457679400551E-3  -2.697712371796707E1  -4.708058575085885E1  -4.462481144394203E1  
 1.040000000000000E9    -6.759497174130745E1  -4.080353491075839E1   6.395746247974471E-2  -2.751593735855553E1  -3.662120290451851E-2  -2.699986922132656E1  -5.139088297354358E1   1.372739685403639E2  
 1.050000000000000E9    -5.448510870499192E1  -5.422718784068664E1   1.660525600096690E-2  -2.770636601511294E1  -9.079393853726574E-4  -2.765336158166207E1  -3.949562030880123E1  -1.172900641427816E2  
 1.060000000000000E9    -5.527831401530962E1  -8.041849160346553E1   7.786865592515750E-2  -2.839619485083374E1  -2.335266976503831E-2  -2.781907666173841E1  -3.267462810688736E1  -1.004691582575892E2  
 1.070000000000000E9    -4.509987130328458E1  -1.343053723338791E2   1.161708009048908E-1  -2.903198824270513E1   1.261356120491790E-1  -2.797529671238374E1  -3.974031242487114E1   3.808181157691894E1  
 1.080000000000000E9    -5.581388581639070E1   1.298107145578940E2   1.626184818595975E-2  -2.875750704405372E1   6.171551480250717E-2  -2.820104472668161E1  -3.942434049186418E1   8.395291269354478E1  
 1.090000000000000E9    -5.287119158884425E1   1.591550261720084E2   6.456785554798597E-2  -2.828571395578826E1   1.170411234947699E-2  -2.852904381862019E1  -4.334012648905015E1  -4.594361053559238E1  
 1.100000000000000E9    -5.013389572243627E1   5.044683953019994E1   1.508917371918218E-1  -2.899205021928087E1   4.251957348275937E-2  -2.884635296558173E1  -4.287902080290602E1  -4.267984057242460E1  
 1.110000000000000E9    -5.945329620044566E1   1.641650336735685E2   5.662035082245642E-2  -2.904786764197522E1  -5.642197954026530E-2  -2.897289745504502E1  -4.155152260428321E1  -7.709765692865423E1  
 1.120000000000000E9    -4.981170451915706E1  -8.845251911461102E1   1.288592483618399E-1  -2.974913036349615E1   1.190667526068699E-2  -2.916074310413350E1  -3.964676294832051E1   1.743785625872282E2  
 1.130000000000000E9    -5.305184629173228E1   5.325757372661746E1  -4.822391954857318E-2  -3.003019438772758E1  -4.163070634515516E-2  -2.998465958656987E1  -3.888491182732860E1  -5.572142135689959E1  
 1.140000000000000E9    -5.672950868693218E1   6.633947564407944   6.112395506808085E-2  -3.009998396554872E1  -5.427972842279654E-2  -3.004218625936203E1  -4.338915249263227E1  -1.693070635115975E2  
 1.150000000000000E9    -5.370606626143647E1   6.144725526728061E1   1.368258193733595E-1  -3.063446782258723E1   1.501120841970154E-2  -3.013088802339570E1  -3.843342178104256E1   3.821990979790448E1  
 1.160000000000000E9    -6.160058680317437E1  -2.838848755461011E1   6.233548053624879E-2  -3.143837990952098E1   6.320167344340369E-3  -3.072926411434439E1  -4.282797445373736E1  -8.544423197331024E1  
 1.170000000000000E9    -6.285340287104157E1   1.247934997592954E2   3.372203852269233E-2  -3.075900679764904E1  -2.188330606227078E-2  -3.075221474292992E1  -4.248378742329823E1   1.299835814398919E2  
 1.180000000000000E9    -6.670300784607943E1  -1.322779152106979E2   1.883859289335796E-2  -3.060757901470838E1  -4.638894915783870E-2  -3.116634408857680E1  -3.976658985882832E1  -6.421541723306950E1  
 1.190000000000000E9    -5.708910644683139E1  -7.864880766686088E1   5.866251447439241E-2  -3.059051776283553E1   1.826740460527569E-2  -3.110417920580562E1  -4.113820731545048E1   1.653641705115705E1  
 1.200000000000000E9    -6.553458914334298E1  -8.430692664199540E1   7.104275446588780E-3  -3.119024493546041E1  -3.983747873266463E-2  -3.159348539007485E1  -3.950181902238329E1  -1.060775245148977E2  
 1.210000000000000E9    -6.497562541637313E1  -6.550413386327034E1   3.267206145661741E-2  -3.128725223842710E1  -6.402954073489887E-3  -3.182482469854966E1  -4.843176336967373E1  -1.065360866814299E2  
 1.220000000000000E9    -5.583899998150096E1   1.598622115467587E1   4.307997860277313E-2  -3.242504801850232E1  -2.829442481739906E-2  -3.168969536363711E1  -4.094344692349727E1   1.358965384247051E2  
 1.230000000000000E9    -6.391620022515430E1   1.619727189328739E2   7.169507031621704E-2  -3.206593829140299E1  -1.080683384102681E-1  -3.201685637310185E1  -3.834054921047573E1  -1.611098314183741E2  
 1.240000000000000E9    -6.693546488903512E1  -1.754832213330325E2   2.190185106464501E-2  -3.311561523464954E1  -6.284801281288033E-2  -3.198302567096968E1  -3.225228379943232E1   1.518915548727454E2  
 1.250000000000000E9    -4.876118691063387E1  -1.733919642281113E2   5.978523257961774E-2  -3.320844698773694E1  -3.041655278022170E-2  -3.292626628616942E1  -4.473027131571099E1   1.014429865744294E2  
 1.260000000000000E9    -4.925366484084708E1   1.324143455262724E2   1.842066841514773E-2  -3.340721568399050E1  -3.368813889862770E-2  -3.355772610118696E1  -3.381818622204427E1  -4.640245465830217E1  
 1.270000000000000E9    -5.315079568147903E1  -3.627198524300787E1  -1.787036345664928E-2  -3.335423485380082E1  -3.777691247781010E-2  -3.328932120264530E1  -4.637220073935220E1  -1.544864650983415E2  
 1.280000000000000E9    -4.607890889235101E1  -5.551045653689318E1  -9.101501112418042E-3  -3.373452531774461E1  -5.593196023630569E-2  -3.406242937498201E1  -4.580319273080188E1  -9.125589646933773E1  
 1.290000000000000E9    -5.279444908424791E1  -8.389557114444806E1   2.534423573245635E-2  -3.432882499525627E1  -4.674701446365805E-2  -3.375693436294701E1  -3.832530343442543E1   1.580700691794010E2  
 1.300000000000000E9    -5.840368343442817E1   1.642688664390003E2   3.868516884164731E-2  -3.435204555612094E1  -7.801236104400884E-2  -3.410019532140667E1  -4.799938141244864E1  -1.520008572121110E2  
 1.310000000000000E9    -5.674829001971916E1   9.138641624806735E1   4.866743331603733E-2  -3.475991655237698E1  -6.204575596200881E-2  -3.400894217891029E1  -4.219254653072156E1   1.600623783732867E2  
 1.320000000000000E9    -5.242690053626514E1   1.136993488927878E2   2.063763559379780E-2  -3.505908903107417E1   1.544089629924796E-2  -3.464663378413339E1  -4.087929968234729E1   6.034983154472810  
 1.330000000000000E9    -5.521387201637460E1   5.157665411158524   1.625212887662316E-2  -3.585137309078905E1   6.039481886158538E-3  -3.478983995207101E1  -3.921176802326068E1   1.652283007697986E2  
 1.340000000000000E9    -5.755210722194309E1   1.510827232902107E2   5.774787665604834E-2  -3.523230769804851E1  -3.294033798076242E-2  -3.475576218895622E1  -3.938301899342783E1  -1.380725841360998E2  
 1.350000000000000E9    -5.269812702571156E1  -8.303562498184493E1   8.070470651143152E-2  -3.595978510798020E1  -4.792192985214762E-5  -3.516629187763900E1  -4.985459156044460E1   1.584660718021344E2  
 1.360000000000000E9    -5.241964652186535E1  -7.802459111438847E1   7.483364504911470E-2  -3.576967318144143E1   5.786512872624333E-3  -3.529070046376812E1  -3.479752690567221E1   6.094936828757757E1  
 1.370000000000000E9    -6.166121731846479E1  -6.538648955773277  -2.426135974829288E-2  -3.602662734599973E1  -6.688265494326873E-2  -3.602170869307059E1  -4.874683143922872E1  -1.765918788310465E2  
 1.380000000000000E9    -6.269300240140567E1   1.046880047272963E2   4.923315806509258E-2  -3.651033185167954E1  -3.169636523187552E-2  -3.619632571323473E1  -3.861643260436915E1  -1.700522871924733E2  
 1.390000000000000E9    -5.647509088447788E1   7.332787448689562E1   6.353752673343356E-3  -3.670940161767402E1  -1.918356246854232E-2  -3.669419791929461E1  -4.617615185531846E1  -6.385938727346156E1  
 1.400000000000000E9    -5.644289764941313E1   7.301672667541639E1   2.136809345157743E-2  -3.686316463710713E1   3.147457205972604E-2  -3.677287658099865E1  -4.383242531512651E1   4.535406632490558E1  
 1.410000000000000E9    -5.793938654347085E1   9.235976864894900E1   9.815688001527163E-2  -3.650226297080365E1  -2.785916537607652E-2  -3.658614766397539E1  -3.908203284212237E1   7.881341612614446E1  
 1.420000000000000E9    -5.386496367873180E1  -1.499796974833407E2  -1.172015011343019E-2  -3.735746397993733E1  -2.616100001274163E-2  -3.710380214661619E1  -6.343156449623800E1  -6.165608820570448E1  
 1.430000000000000E9    -5.375138105763254E1  -1.239416865029036E2   9.253685451809617E-2  -3.708248392607593E1  -4.814959924166763E-2  -3.768120244718747E1  -4.226316160959353E1  -1.088349022260018E2  
 1.440000000000000E9    -6.861506571789036E1   1.672685268358825E2  -3.915360837302562E-2  -3.737035222900151E1   1.172202129200216E-2  -3.821969481686696E1  -3.885306976117729E1  -2.239601832190847E1  
 1.450000000000000E9    -5.557674850505067E1   5.750850597742420E1   8.345926629702406E-2  -3.838178179928657E1  -6.509431458445059E-2  -3.786764202632138E1  -5.932353250349436E1  -5.493854736153937E1  
 1.460000000000000E9    -4.964815243094881E1   2.318322538182464E1   2.405053370630517E-2  -3.849507247059226E1   4.384897574912763E-2  -3.855834394826721E1  -5.086195050161701E1  -8.810041467390150  
 1.470000000000000E9    -4.698988777041036E1   2.857509795763024E1   5.960575295119039E-2  -3.799691704486854E1   6.048339721381466E-2  -3.846909785328138E1  -3.706377224516929E1   7.348458716896818E1  
 1.480000000000000E9    -5.156330631900968E1   1.351827399434478E2   5.789438721612046E-2  -3.907148832899625E1  -1.123152778650967E-1  -3.883163247660248E1  -3.751108524108577E1  -8.550638633610915E1  
 1.490000000000000E9    -5.066077530645572E1   1.522965785821724E2   3.615644460212909E-2  -3.938771058499670E1  -4.424204615258397E-2  -3.915923937913757E1  -4.037510736395483E1  -8.319110028600156E1  
 1.500000000000000E9    -5.540483974186800E1  -1.233378922134981E2   1.303387616597026E-3  -3.920364220395252E1  -3.650398118305553E-2  -3.913412373139619E1  -5.858880603515139E1  -1.494384568957679E2  
 1.510000000000000E9    -4.952843671345299E1  -7.883086981579504  -1.614111769632658E-2  -4.031011536620261E1  -1.961976925856426E-2  -3.986672538466397E1  -3.629023692962969E1   1.534891959263195E1  
 1.520000000000000E9    -6.655201346670675E1   1.701031699612803E2   1.880072730362884E-2  -3.988724753492235E1  -3.555444305834928E-2  -3.985682861447724E1  -4.166223852831656E1  -3.502384250494349E1  
 1.530000000000000E9    -5.896118888908979E1  -9.971429396093231E1   8.434712021732067E-2  -4.059060384570743E1  -4.054233051392943E-2  -4.022228295159846E1  -3.952141730331304E1  -5.094324946778746E1  
 1.540000000000000E9    -6.081504292716762E1   8.675434310899659E1  -1.414162602398407E-2  -4.037190337842449E1   3.365928321192310E-2  -4.077124115484326E1  -3.836419835904608E1  -1.040119744711009E1  
 1.550000000000000E9    -5.488790724429090E1   1.086644719016759E2   1.746521192248913E-2  -4.100478080405744E1  -2.567380788313547E-3  -4.060961597455343E1  -5.467298022126099E1   9.048891480020646E1  
 1.560000000000000E9    -4.726247972615072E1   1.135566697700181E2   1.033123831577753E-1  -4.106694086056628E1   7.326780316397494E-2  -4.104805390488055E1  -3.643362373419496E1   1.332355984649873E2  
 1.570000000000000E9    -5.359777177672010E1   1.051142409101493E2   8.617665050876047E-2  -4.142118517368313E1  -3.041920527582302E-2  -4.100224804212554E1  -4.370490854125696E1  -5.199603932495709E1  
 1.580000000000000E9    -7.275209789230259E1   1.038203106009756E2   4.247082873256245E-2  -4.172817726168965E1   1.582771666250138E-3  -4.169199168222674E1  -4.826895010862629E1  -2.761060539034823E1  
 1.590000000000000E9    -5.281898140666810E1  -2.573164630748841E1   7.499906219734728E-2  -4.166099698141193E1   3.029338662021463E-3  -4.119355640445222E1  -4.274908079674419E1   1.642029431680445E2  
 1.600000000000000E9    -5.488298883593781E1  -1.410045856383642E1  -3.283415097684132E-2  -4.219193112657831E1  -6.734881328569618E-2  -4.187107749578492E1  -3.812145678871367E1  -2.055555924752659E1  
 1.610000000000000E9    -6.537394875633159E1  -1.121119968632425E2   3.044601664605193E-2  -4.193906400571607E1   2.541753393091877E-2  -4.213255015453576E1  -3.920661497611366E1  -1.658278516823707E2  
 1.620000000000000E9    -5.325080094813124E1   1.140892461082742E2   8.367571626543478E-2  -4.320752488898133E1   9.473055497344495E-3  -4.236268147281866E1  -5.415967014451314E1   1.502261440291628E2  
 1.630000000000000E9    -4.994427706270471E1   9.558311676874942E1   4.110277881806485E-2  -4.303336269238988E1   5.018364010821248E-2  -4.263220391965822E1  -4.402861062404676E1   1.677388414892735E2  
 1.640000000000000E9    -5.661759389240354E1   7.106413592287349E1   5.090337053214770E-2  -4.306923975076852E1  -7.153373439315952E-2  -4.292368812801559E1  -4.172516109621218E1  -1.772296790089181E2  
 1.650000000000000E9    -6.239378867728738E1   1.862977666393593E1   4.540978011135326E-2  -4.334731472487346E1  -8.816299540993097E-3  -4.316863778432811E1  -3.631392115565579E1  -8.772230017548709E1  
 1.660000000000000E9    -5.868242669031787E1  -8.958671163080462E1   2.289503372806650E-2  -4.347739670386975E1   1.215766960232543E-2  -4.357832806860409E1  -4.057554091004123E1   8.302691487697572  
 1.670000000000000E9    -5.786452130978310E1  -7.823772729504859E1   1.273585941031536E-2  -4.370548322137359E1  -4.857142098840875E-3  -4.354580894762864E1  -5.151032630148824E1   9.495725193516923E1  
 1.680000000000000E9    -6.115638696840358E1   1.671074656489961E2   4.741808047540947E-2  -4.402728589438622E1   1.685934975494211E-2  -4.394977689325950E1  -4.165831058882729E1   1.101177847078040E2  
 1.690000000000000E9    -5.945769630963809E1  -2.508769482228528E1  -7.729509667030380E-3  -4.419413806618485E1  -4.718916583481696E-2  -4.441978504782973E1  -6.182785697853209E1   1.544719303122011E2  
 1.700000000000000E9    -5.502129069878473E1  -7.244881889968459   1.814359910985635E-2  -4.504889720804304E1  -2.241264201494028E-2  -4.456935436640956E1  -5.611654947796584E1   4.092025052164478E1  
 1.710000000000000E9    -6.019455087156720E1   1.103958025383634E2  -2.666009431995166E-2  -4.506613497731024E1  -1.027778196575421E-2  -4.487656445349187E1  -5.105133851803789E1   8.095829785989577E1  
 1.720000000000000E9    -5.473151617486688E1  -8.748928960827949E1   5.179542877850681E-2  -4.519315013260885E1   2.675594831485324E-2  -4.490868692505725E1  -4.159863151956873E1  -1.116573062067881E2  
 1.730000000000000E9    -5.720567839444374E1  -1.506648404434941E2   2.922626940580169E-2  -4.556316822058100E1   1.365576605990714E-2  -4.512453528949382E1  -4.901309803138041E1  -6.715153443033965E1  
 1.740000000000000E9    -5.962576544355106E1  -1.695420641931232E2   3.471203162113193E-2  -4.548324272488314E1   1.310646943795197E-3  -4.571348289730636E1  -4.484504696075359E1  -3.831108220848146E-1  
 1.750000000000000E9    -5.690425865732733E1  -9.845545278512397E1   1.504923400018745E-2  -4.609556536217654E1  -5.664500493747419E-2  -4.585590993642942E1  -4.636359903926005E1   2.537242841993146E1  
 1.760000000000000E9    -5.731209395352505E1   1.536683784877925E1   3.166690180588518E-2  -4.629244642331896E1   4.470335428908599E-4  -4.612718794951121E1  -3.860458885553636E1   1.065456592787698E2  
 1.770000000000000E9    -5.643015219102671E1  -8.678258629431030   6.387578582185446E-2  -4.701449460669723E1   1.451832960730615E-2  -4.609349115196525E1  -5.121421858620949E1   1.371921327076710E1  
 1.780000000000000E9    -5.531946791607268E1  -2.620452895951410E1   1.799732890856284E-2  -4.646591022940635E1   9.668086050537622E-3  -4.665400949781230E1  -5.277364457369797E1   1.751728410232812E2  
 1.790000000000000E9    -6.305297142732650E1  -1.358501804755138E2   6.012720742735474E-2  -4.695672265268575E1   3.974523142509926E-4  -4.680368291574282E1  -5.064870132998558E1   1.318681624845491E2  
 1.800000000000000E9    -6.085072838191741E1  -1.634089187673118E2   6.264893281560131E-3  -4.774795468687311E1  -3.494434924332947E-2  -4.702367939271384E1  -4.812164786341676E1  -2.367963098809840E1  
 1.810000000000000E9    -5.627063373920606E1   1.268597483791820E2   6.688237752895747E-2  -4.746213582477135E1   1.951298430119305E-2  -4.752392463150493E1  -4.691737130640562E1   8.528023252624610E1  
 1.820000000000000E9    -6.632970555936821E1   3.441920374156567E1   4.256465813399873E-2  -4.757671904720804E1  -5.541509666113244E-2  -4.773532665168108E1  -4.217508542134895E1   1.122533290778495E-1  
 1.830000000000000E9    -5.466378732269892E1  -4.899377848674548E1   2.912142237820654E-2  -4.813431170850238E1  -1.409904081138757E-2  -4.810303639620614E1  -4.640585439648405E1  -2.215452143722573E1  
 1.840000000000000E9    -5.520260470873121E1  -4.817599947207042E1  -4.177756372768621E-2  -4.850470386589208E1   5.908200534999723E-2  -4.804565881465270E1  -3.871248948649841E1  -1.738451048551921E2  
 1.850000000000000E9    -6.003481066619553E1  -1.626729424229424E2   4.113528353336694E-2  -4.866910609518455E1   1.767794908018405E-2  -4.878031921004276E1  -4.607049199306675E1   1.521433942347732E2  
 1.860000000000000E9    -5.638918227479830E1   9.151052536260308E1   2.605472537370564E-2  -4.888232273573777E1   2.340255521091543E-3  -4.895757562309564E1  -4.191872848920428E1   1.146569756843088E2  
 1.870000000000000E9    -5.321607705875924E1   8.157920252730035E1   6.332569758841872E-2  -4.933529943172935E1   1.027414988088182E-2  -4.905085066611840E1  -4.272358572547567E1   1.027831916326234E2  
 1.880000000000000E9    -5.861719123562978E1  -1.735419601493252E2   6.404740333007772E-3  -4.942072719059482E1  -1.725517086974014E-2  -4.907936067030720E1  -4.939973900172977E1  -8.074930833254163E1  
 1.890000000000000E9    -4.747734618186046E1  -5.872909031202492E1   6.361524973052703E-2  -5.009357028314945E1   8.144530560746799E-2  -4.956335369228601E1  -4.098057950965001E1  -1.577867075528781E2  
 1.900000000000000E9    -6.657794724440846E1  -1.076167546025171E2   2.492791687987375E-2  -4.960066193838750E1  -1.932281400937333E-2  -4.995608091700815E1  -4.590005287156101E1   2.545479366870327E1  
 1.910000000000000E9    -5.335480625290133E1  -1.386089065104766E2   8.624510354499296E-2  -4.992961156665924E1  -9.717307135743930E-3  -5.013040525685269E1  -4.438874818669390E1   1.755450946656063E2  
 1.920000000000000E9    -5.399986529338004E1   2.752408216526471   1.529500455008725E-2  -5.035517920065811E1  -9.704832330814217E-4  -5.065717199795252E1  -4.744368219830416E1   1.764704712750007E2  
 1.930000000000000E9    -5.291236654252120E1  -1.141663740237027E2  -1.707647468041626E-2  -5.070661822155691E1  -3.041539126097940E-2  -5.045210197455435E1  -4.649713339166585E1  -7.199050741931164E1  
 1.940000000000000E9    -5.907852898076681E1   1.425008194575765E2   3.783967180350546E-2  -5.097303847373122E1  -4.236258993191178E-2  -5.055874456604097E1  -4.151105724490564E1  -7.513057248429579  
 1.950000000000000E9    -7.199925003710213E1   3.617616171680831E1   4.755952830861443E-2  -5.089121673793613E1  -1.585498777879361E-3  -5.109495648342764E1  -4.261483188081985E1   8.462839775036316E1  
 1.960000000000000E9    -6.001236033815531E1  -1.770543478278507E2   2.171636597994505E-2  -5.134407918947648E1   1.509103658098489E-2  -5.132508798926463E1  -4.920153983975212E1  -1.766395356511187E2  
