#  HZ   S   DB   R     50.00 
! Rohde & Schwarz ZVA40 4Ports - Version 4.11 - 1145.1110k42 SN: 100337
! Date: 2025-12-16 12:52:05
! Measurements: S11 S41 S14 S44 
! 
 1.000000000000000E9    -5.412893680674851E1  -1.394108560948726E1   1.093030162875848E-1  -2.709362074724774E1  -2.073466432371077E-2  -2.621657331318271E1  -4.060270539344091E1   1.536478918819860E2  
 1.010000000000000E9    -5.995759758628870E1  -3.947991419876262E1   8.253096933890507E-2  -2.623218807326703E1   1.389112992141265E-2  -2.645623880441280E1  -4.280678192928012E1   1.038207654608143E2  
 1.020000000000000E9    -5.012329352814678E1   9.874537951344695E1  -1.337510620888144E-2  -2.717863281639722E1  -1.592950315972976E-1  -2.680293819517136E1  -3.608182078273799E1  -1.522574745160524E2  
 1.030000000000000E9    -5.176513664983077E1   1.067155298145040E2   4.628016012424532E-2  -2.744351294254905E1  -6.775220139236093E-4  -2.738991009442016E1  -4.313868146512035E1  -1.006961957035394E2  
 1.040000000000000E9    -6.129470876504318E1   6.448216208471621E1   5.024557030639138E-2  -2.754924711168018E1   1.429361865191230E-2  -2.708377280870004E1  -4.500543967972472E1   4.535175074018007E1  
 1.050000000000000E9    -5.203976183268310E1  -3.272040961192975E1   7.130830358265133E-3  -2.763478095120350E1   4.877780738382601E-2  -2.773520453799016E1  -4.242913717058057E1  -6.457509096653376E1  
 1.060000000000000E9    -5.162378633695079E1  -3.847503236458861E1   6.635219968086864E-2  -2.827449739779649E1   3.819709686905041E-2  -2.748209900524653E1  -4.356789717635355E1  -8.062037233092968E1  
 1.070000000000000E9    -4.559868089430898E1  -1.799925910408585E2   4.502715965536931E-2  -2.922397674306874E1   2.136237736673738E-2  -2.844176025885784E1  -3.946829861861316E1  -8.995104184763849E1  
 1.080000000000000E9    -4.757756400889408E1   7.101739074333946E1  -4.914362703606701E-2  -2.892183900770024E1  -3.276769772257356E-2  -2.859612603307888E1  -3.665090806945643E1  -4.409883706264184E1  
 1.090000000000000E9    -4.944875627343985E1   1.557620848435365E2   9.650818158584652E-2  -2.841353801863273E1   2.434308485389344E-2  -2.840006490485348E1  -4.330383814840799E1   5.595749658632396E1  
 1.100000000000000E9    -4.895578817285364E1   3.856067560364253E1   1.267585015181696E-1  -2.874729229913035E1   6.273928771939123E-2  -2.919099440352785E1  -3.398362302907236E1  -2.779859539087360  
 1.110000000000000E9    -5.684661574647445E1   1.021302987493850E2   3.766157414479409E-2  -2.890278988022245E1  -2.926379130003972E-2  -2.868673159708333E1  -4.569254472679571E1   1.334271731328659E2  
 1.120000000000000E9    -5.123609504017780E1  -1.111103211175415E2   1.208630046576703E-1  -3.000419908755489E1  -3.150319585758341E-2  -2.933871642051289E1  -3.768229577971470E1  -1.467256245819326E2  
 1.130000000000000E9    -5.234176080948839E1   2.652979868611067E1  -6.476267440661046E-2  -2.989877984521361E1  -3.507270624601660E-2  -2.955674657323136E1  -3.878758599600809E1  -1.512070792294778E2  
 1.140000000000000E9    -5.563692066788840E1   2.297715921531260E1   7.950311624104045E-2  -3.016062794346345E1  -5.179988638574693E-2  -3.022124916320705E1  -3.697650544226492E1   1.715957963894126E2  
 1.150000000000000E9    -5.206581371245886E1   6.205441030042638E1   1.694958940090053E-1  -3.060765268584130E1   3.215314238157931E-2  -3.026309396918865E1  -4.483320149598862E1   7.822633388446336E1  
 1.160000000000000E9    -6.225422722154503E1  -5.983597564449643E1   6.628594335575470E-2  -3.155887425007106E1  -4.204303276627591E-2  -3.068312458272368E1  -3.920683768656591E1  -1.139484853209109E2  
 1.170000000000000E9    -6.044245574083426E1   1.068281671566245E2   4.451787116349473E-2  -3.085979238574092E1  -3.045791793548525E-2  -3.032479919363919E1  -4.175853973481637E1   9.417477200849552E1  
 1.180000000000000E9    -7.008545677033436E1  -9.878603288408914E1   1.225161441209686E-2  -3.047757724886863E1  -1.027595850075501E-3  -3.099605203556559E1  -4.471901601526341E1   5.779821352690774E1  
 1.190000000000000E9    -5.802821999139600E1  -9.864030478276953E1   4.962520185656500E-2  -3.039625336642516E1  -2.208683879575208E-2  -3.169544355025324E1  -3.646914395198613E1  -4.101148440136538E1  
 1.200000000000000E9    -6.021544904779061E1  -1.075698156698402E2   1.932167917311166E-2  -3.123506412916382E1   3.429640881875016E-3  -3.165121038828459E1  -4.326036717412419E1  -8.120849387189578E1  
 1.210000000000000E9    -5.734187955621093E1  -5.750958610762629E1   1.128604342573320E-2  -3.120091263610369E1  -1.865681331994822E-2  -3.155216575247776E1  -4.575532180286803E1  -1.333348132713809E2  
 1.220000000000000E9    -5.375410733051101E1  -5.485376578995087   5.808345896264925E-2  -3.246751100238590E1  -9.419026096899807E-2  -3.162141054782899E1  -3.720053083412098E1  -1.690212230606879E2  
 1.230000000000000E9    -6.174982333739205E1   4.205184277222786E1   8.211090610543716E-2  -3.211137484591501E1  -6.417730927282632E-2  -3.222676220702572E1  -3.709217360658119E1  -1.690451365297645E2  
 1.240000000000000E9    -5.580559880346344E1  -8.382765647178995E1   3.931839431147358E-2  -3.296614515861667E1  -4.300853748424098E-3  -3.240809507319162E1  -4.135864997010486E1   1.250333076070512E2  
 1.250000000000000E9    -4.734363420868390E1  -1.662563470302275E2   7.585708880326664E-2  -3.329858062935772E1  -2.325904085612627E-2  -3.297210955137623E1  -4.190552195605564E1   1.075335434185299E2  
 1.260000000000000E9    -5.405413500417077E1  -1.664466830131719E2   5.276848710096318E-2  -3.309807388698300E1   7.056527107262200E-3  -3.285764339063425E1  -4.668673123839965E1   1.599720386688833E2  
 1.270000000000000E9    -4.830591981245491E1  -3.575244569683039E1  -5.799295106143931E-2  -3.338896869086688E1  -7.826469928533394E-2  -3.329070607676044E1  -3.993482308558750E1  -7.688841941319892E1  
 1.280000000000000E9    -4.655375054799781E1  -4.947543303730037E1  -1.669858275039957E-2  -3.390890544769987E1  -3.002721573211281E-2  -3.389085385485998E1  -4.669499579943673E1  -7.961281297888550E1  
 1.290000000000000E9    -5.088879393712379E1  -9.828469615617604E1   2.289204379988888E-2  -3.431301939804231E1  -5.274777508577060E-2  -3.378840973126906E1  -4.586826343104785E1  -1.022655978547880E2  
 1.300000000000000E9    -5.807146907787648E1  -7.330713812623515E1   5.564220536662489E-2  -3.430508143551895E1  -1.063313545676635E-2  -3.389342555613327E1  -4.619825742710759E1   7.812124751513652E1  
 1.310000000000000E9    -6.419145381698316E1   3.636996344251142E1   5.510337817988715E-2  -3.472311663222889E1  -5.224629806106917E-2  -3.375855374791694E1  -4.035491459940333E1   1.371136854005998E2  
 1.320000000000000E9    -5.337316883377258E1   1.191883116628225E2   1.411649901370459E-2  -3.507861760022727E1   2.601733363259126E-2  -3.450584015096337E1  -4.351259586751978E1  -5.741291259043866  
 1.330000000000000E9    -5.679650064158866E1   5.853283878047895E1   1.476294441124840E-3  -3.573419068534725E1   5.409482054754039E-2  -3.466160803679986E1  -3.960173101893232E1   1.168165403681635E2  
 1.340000000000000E9    -6.406256482056533E1   1.497006387116026E2   1.006095689437367E-1  -3.509429774890212E1  -4.317932095444198E-2  -3.503516654165757E1  -3.663291603099250E1  -1.015514478542989E2  
 1.350000000000000E9    -5.236381269001480E1  -6.738210147001675E1   6.568051754005001E-2  -3.585495393818795E1   4.469636568109767E-2  -3.504798146971665E1  -4.831636003532565E1   8.488573417855933E1  
 1.360000000000000E9    -5.507688280836628E1  -7.500738328099304E1   6.799025941260234E-2  -3.583046980756821E1  -4.427635320188600E-2  -3.535427177359174E1  -3.914631595264046E1  -1.435518624523811E1  
 1.370000000000000E9    -7.000095216658228E1  -5.403791376430698E1  -7.080215156327612E-3  -3.610167886794439E1  -4.102377377674918E-2  -3.597458104099813E1  -3.972024741709470E1  -1.623714605166788E2  
 1.380000000000000E9    -6.030030326886554E1   1.480947666534774E2   3.906135649209177E-2  -3.637707843974781E1   2.017236357909391E-2  -3.598843962314152E1  -4.404083132853994E1   1.631331800014192E2  
 1.390000000000000E9    -5.622182162269971E1   7.866286511659666E1   7.165430817497229E-3  -3.676698327208965E1  -1.762524565518814E-2  -3.662988523848176E1  -4.670394901081145E1   7.332475081702845E1  
 1.400000000000000E9    -5.842926630917319E1   1.028309355544073E2   1.303104685384242E-2  -3.670907756174413E1  -1.294461296036223E-2  -3.661646705187360E1  -3.843953748452058E1   9.562644542206679E1  
 1.410000000000000E9    -6.524098500479097E1   1.035885815532410E2   7.347811874727464E-2  -3.652398770963632E1  -2.768436297601205E-2  -3.687962610644076E1  -3.962606424394256E1   4.529431562650959E1  
 1.420000000000000E9    -5.049972526630922E1  -1.382717444830184E2   1.293370492014093E-2  -3.742335274780294E1  -1.233057565993728E-2  -3.756610295189930E1  -4.090284404653533E1  -7.428783687610014E1  
 1.430000000000000E9    -5.347927342200995E1  -1.227449476254962E2   1.008713951952140E-1  -3.703412390712063E1  -4.105098190696681E-2  -3.766443714230857E1  -4.663215818515733E1   4.340063358632372E1  
 1.440000000000000E9    -5.834720589463827E1  -1.632400436101759E2  -4.571676691982760E-2  -3.740470741566912E1   6.489840645618020E-2  -3.803223661636635E1  -4.113413241930248E1  -2.776761672005343E1  
 1.450000000000000E9    -5.321597143027462E1   7.294964449917542E1   8.192273089702865E-2  -3.848128562101744E1  -2.275902226625303E-2  -3.786051984647661E1  -5.157772164759602E1   1.167134018053627E2  
 1.460000000000000E9    -5.265598269547358E1   2.438121450443248E1   4.216317547954338E-2  -3.876176888266745E1   2.933279900188180E-2  -3.816632064867195E1  -3.489917572065610E1  -1.481258056043984E2  
 1.470000000000000E9    -4.825897562513025E1   5.126055257651684E1   4.268661974821142E-2  -3.797532518374661E1   2.274020381398196E-2  -3.834580720613455E1  -4.047390128925577E1   9.538997584468119E1  
 1.480000000000000E9    -5.068989610562188E1   1.386566723652656E2   3.461821395443444E-2  -3.904194901603470E1  -9.459788699303727E-2  -3.885664537127213E1  -4.486727380921127E1  -8.435208004118240E1  
 1.490000000000000E9    -4.646452111052937E1   1.747163253835472E2   7.452294905162800E-2  -3.926480483558941E1   2.027787425381793E-2  -3.930240067172252E1  -4.502753598713874E1   1.563889078944299E2  
 1.500000000000000E9    -6.123206652214176E1   5.309963869193461E1  -8.233964394867331E-3  -3.947596623493280E1  -3.884245475761741E-2  -3.957095477693824E1  -4.180251945846432E1   4.198308243157374E1  
 1.510000000000000E9    -5.003279944357576E1  -1.972978078409944E1  -6.620559451600523E-4  -4.045746242155396E1  -6.071976842196172E-2  -3.964495336018216E1  -3.638464834312093E1   1.809446193964919E1  
 1.520000000000000E9    -5.627884280766226E1   1.600195337296795E2   4.611294151643122E-2  -3.984598424323306E1  -8.026013361098566E-2  -3.973798202788117E1  -3.979455998020740E1  -8.772344248978749E1  
 1.530000000000000E9    -5.224394618434197E1  -7.644804641860188E1   7.632752361494939E-2  -4.054484318952699E1   1.383980436722273E-2  -4.023129009034002E1  -4.872125968748874E1   5.918240043931039E1  
 1.540000000000000E9    -5.417835873509939E1  -1.712641624162104E1  -2.379189822415035E-2  -4.017595267651360E1   4.197787187083441E-2  -4.018574523562191E1  -5.018378430905452E1  -1.416289544891730E2  
 1.550000000000000E9    -5.891914475759546E1   8.423106658579886E1   3.797340355436943E-2  -4.092499487809253E1  -6.023797272535615E-2  -4.062232197029027E1  -4.369868449859675E1  -5.706403031878014  
 1.560000000000000E9    -4.845806947013018E1   1.316495446642781E2   1.222072003463843E-1  -4.098276288976717E1   8.552629870037041E-4  -4.069134319734567E1  -3.804154551325246E1  -1.796939427786642E2  
 1.570000000000000E9    -5.584367712808732E1   8.263509760531620E1   6.662546331064839E-2  -4.140445639582792E1  -8.187049167295684E-3  -4.140207277591162E1  -3.830372481633201E1   3.266918918176843E1  
 1.580000000000000E9    -7.025216707966351E1  -1.081847762596884E2   5.508741810797667E-2  -4.166070434709126E1   3.561444085665415E-4  -4.200311555175836E1  -4.268577118464312E1   8.539490837294983E1  
 1.590000000000000E9    -6.036839098478459E1  -5.302097265469474E1   5.851427986697280E-2  -4.167244829672658E1   2.452261856636433E-3  -4.212082370812919E1  -4.661611101086585E1   1.161705930851684E2  
 1.600000000000000E9    -5.396651955872150E1  -1.311284373454301E1  -5.257227514863807E-2  -4.200704886355519E1  -5.004918006125256E-2  -4.180281432293701E1  -4.141491147807322E1  -2.082142472987974E1  
 1.610000000000000E9    -6.396058493003975E1  -1.273499484033330E2   2.942021668490310E-2  -4.208622705327527E1   4.325435137840268E-2  -4.223554513353922E1  -3.774588064685659E1   1.420261023283031E2  
 1.620000000000000E9    -5.482703288448605E1   1.144615320017264E2   4.646009266992545E-2  -4.323198677755011E1   2.665952168678687E-3  -4.196594478139170E1  -5.749443973861330E1  -6.612920430910879  
 1.630000000000000E9    -5.082335179361635E1   9.386235807719983E1   2.750315547041905E-2  -4.304490498398130E1   1.469721316749487E-2  -4.247317618427148E1  -5.179203588273037E1  -3.722048599666134E1  
 1.640000000000000E9    -5.476288666357050E1   6.565437956997695E1   6.179373675620373E-2  -4.301672259101721E1  -5.445844028962687E-2  -4.309268842219631E1  -3.882649994913491E1  -1.332661772601311E2  
 1.650000000000000E9    -6.038483253304774E1  -1.561547405427265E1   4.619684685271736E-2  -4.333557670896896E1  -9.483703214751385E-3  -4.342301274707747E1  -4.110987827395998E1  -7.374477698637394E1  
 1.660000000000000E9    -5.579910796913885E1  -7.942273184673420E1   2.833879031084573E-2  -4.356037415548048E1   2.228817689621869E-2  -4.348871851812104E1  -4.456249791375321E1   1.104962382164873E2  
 1.670000000000000E9    -6.275744854607778E1  -5.462802923444923E1  -8.782303405890597E-3  -4.365901026651187E1  -1.515326176428406E-2  -4.371327248980845E1  -5.543753608616242E1   1.292427184626024E2  
 1.680000000000000E9    -5.945592513877521E1   1.298324428437048E2   2.877800547258769E-2  -4.419450942667432E1   2.682650850728623E-2  -4.394958255165741E1  -5.894224036036162E1   1.144433201654362E2  
 1.690000000000000E9    -5.037575180205381E1   3.618551449741235  -1.835870982012189E-2  -4.421338394315033E1  -4.732734343564082E-2  -4.491084511867527E1  -3.898651139107082E1  -1.230831007384307E1  
 1.700000000000000E9    -6.311294717945905E1   2.754634408491868E1   1.785739782391369E-2  -4.516803132146352E1  -4.990318616315126E-2  -4.420469469172620E1  -4.883659596558954E1   1.435833624781737E2  
 1.710000000000000E9    -6.090177757374989E1  -8.803246627538245E1   8.710822116558431E-4  -4.491519458540403E1   4.463301740169295E-2  -4.524706250039956E1  -3.845477331716343E1  -2.861820462259120  
 1.720000000000000E9    -6.335563775285870E1  -1.053312554477246E2   5.427831914359382E-2  -4.522947124130792E1  -1.269115776840859E-4  -4.511612885062847E1  -4.143116087004707E1  -8.880265592855720E1  
 1.730000000000000E9    -5.355402753824826E1  -1.331509059921417E2   2.632739354145923E-2  -4.543756285954377E1   2.389391606218184E-2  -4.501059850023741E1  -5.976830599922697E1  -1.028662936900200E2  
 1.740000000000000E9    -5.384810733675934E1  -1.245284879219627E2   4.263438726897259E-2  -4.558545370577532E1  -4.435296044635956E-2  -4.542932455157879E1  -5.419362654781608E1   5.805847964475603E1  
 1.750000000000000E9    -6.223404971444021E1  -2.301033777355529E1   1.840258789437329E-2  -4.629975124466537E1  -9.826495642409115E-3  -4.581919008626328E1  -3.870648734681151E1   6.786377797455002E1  
 1.760000000000000E9    -6.286060070571492E1   3.346703325930439E1   5.440110891425450E-2  -4.624661252487450E1  -5.615274556634418E-2  -4.614707023358106E1  -4.853572352928163E1   2.202560413007964E1  
 1.770000000000000E9    -5.745960140478091E1  -8.658357884701051   7.754748397833806E-2  -4.684125384015094E1  -5.994115655729573E-3  -4.631468122921567E1  -4.519059377590394E1   1.169561781537204E1  
 1.780000000000000E9    -5.589516252628670E1  -2.054542669158465E1   2.719994758493813E-2  -4.652153320487082E1   9.443780446678023E-4  -4.670739755533986E1  -4.296160537170722E1  -1.143534062660470E2  
 1.790000000000000E9    -5.917868544385114E1  -1.436797968253754E2   5.729422441078323E-2  -4.688065941470440E1   1.397508936614116E-2  -4.662597537312367E1  -4.601247387059667E1   1.734676797494493E2  
 1.800000000000000E9    -5.954825199485252E1  -1.700959342512755E2   1.888871047642950E-3  -4.763434068902097E1  -3.458829640227083E-2  -4.706917645304632E1  -4.317996893383754E1  -6.729450021088938E1  
 1.810000000000000E9    -5.791517132061136E1   1.316565501379201E2   8.316713201552511E-2  -4.760225766798433E1   9.487316909187556E-4  -4.760816360570377E1  -4.764559469664507E1   1.671037715792088E1  
 1.820000000000000E9    -6.163014536381144E1   4.594953894386803E1   5.730321295204460E-2  -4.761771276949116E1  -5.772634574642379E-3  -4.766961668780049E1  -4.363036938180190E1   7.365082292604684E1  
 1.830000000000000E9    -5.354682522889615E1  -3.935432900556361E1   3.162837063474496E-2  -4.807580009281869E1   2.247715826770828E-4  -4.820329184002544E1  -5.998126182141851E1  -4.790909977248216E1  
 1.840000000000000E9    -5.456583304189868E1  -5.657043349479414E1  -1.928908587341115E-2  -4.854242856390224E1   5.384768343974366E-2  -4.809004795189317E1  -4.732663577794516E1   1.121870900684352E2  
 1.850000000000000E9    -6.191180550254968E1  -1.718719129651881E2   4.054450865931913E-2  -4.870918672325858E1  -8.478736491408434E-3  -4.876494465769238E1  -5.443784729269607E1  -1.516929682094689E2  
 1.860000000000000E9    -5.180109077091050E1   9.769681021284627E1   2.672911651898565E-2  -4.892903132016514E1   3.591394436927214E-2  -4.915196806379262E1  -4.259817473362240E1   1.282064222030038E2  
 1.870000000000000E9    -6.097199001304891E1   1.024128068177886E2   6.106304797286643E-2  -4.921941989645428E1  -4.219118453762522E-2  -4.898476370497750E1  -4.168651358463559E1   6.611641842003373E1  
 1.880000000000000E9    -5.711551101584113E1  -1.339248759309527E2   6.523232214827055E-3  -4.950924986307511E1  -1.996901888859076E-2  -4.924726906388147E1  -4.913285949310296E1  -1.123142191820554E2  
 1.890000000000000E9    -4.892414894879433E1  -4.780178041201963E1   6.174706122522605E-2  -5.011152937461652E1   7.607055400628052E-2  -4.931709094705357E1  -4.120032543884166E1  -1.389281577207606E2  
 1.900000000000000E9    -7.124495586015118E1  -2.124835391635699E1   5.083897604062081E-2  -4.957152433298766E1  -6.175477033876349E-2  -4.982441330255210E1  -4.699485897082193E1   3.445609621075070E1  
 1.910000000000000E9    -5.625608859681563E1  -1.601594948888635E2   7.480340384834498E-2  -5.005998521702223E1  -1.093064524281839E-2  -5.026776187888488E1  -6.410727865412495E1   6.308218192146303E1  
 1.920000000000000E9    -5.778306258008883E1   4.886395379302777E1   4.321488285716629E-2  -5.045564966812383E1   3.332051203578338E-2  -5.055337763199157E1  -4.017288324591138E1   1.191286205384157E2  
 1.930000000000000E9    -5.347419136477368E1  -1.259203866418136E2  -8.414659614447153E-3  -5.056145129606585E1  -4.374649799189682E-2  -5.034774554577641E1  -3.724805215148801E1  -6.200834801537773E1  
 1.940000000000000E9    -6.641922339070658E1  -4.530881262170521E1   4.834032482117948E-2  -5.129237035585416E1   1.641632811519401E-3  -5.071683672985347E1  -4.105967078690738E1  -1.672979512557536E2  
 1.950000000000000E9    -5.835611371075532E1   8.161425241670251E1   5.046180219538653E-2  -5.082314706941706E1  -2.157876014382284E-2  -5.110723434670769E1  -4.392707334586569E1   2.697351433920891E1  
 1.960000000000000E9    -5.656245999609494E1   1.586778966374417E2   2.214667025070256E-2  -5.139897452404897E1   1.674702399525306E-2  -5.142520128362947E1  -4.462343212982641E1   1.226542389022129E2  
